  can0  002  [23]  40 01 14 74 65 6C 20 73 63 68 65 6D 61 20 66 69 72 6D 77 61 72 65 0A
  can0  00008002  [03]  42 01 30
  can0       200  [48]  41 01 29 73 63 68 65 6D 61 20 66 69 72 6D 77 61 72 65 0D 0A 54 00 00 00 10 00 00 07 76 65 72 73 69 6F 6E 00 04 04 01 00 00 00 00 00 50 50 50 50
  can0  00008002  [03]  42 01 30
  can0       200  [48]  41 01 29 0D 73 65 72 69 61 6C 5F 6E 75 6D 62 65 72 00 13 03 04 04 01 00 00 00 00 00 00 00 00 00 00 00 00 00 05 6D 6F 64 65 6C 00 04 50 50 50 50
  can0  00008002  [03]  42 01 30
  can0       200  [32]  41 01 17 04 01 00 00 00 00 00 05 68 77 72 65 76 00 04 01 01 06 00 00 00 00 00 50 50 50 50 50 50
  can0       002  [22]  40 01 13 74 65 6C 20 66 6D 74 20 66 69 72 6D 77 61 72 65 20 30 0A
  can0  00008002  [03]  42 01 30
  can0       200  [07]  41 01 04 4F 4B 0D 0A
  can0       002  [20]  40 01 11 74 65 6C 20 67 65 74 20 66 69 72 6D 77 61 72 65 0A
  can0  00008002  [03]  42 01 30
  can0       200  [48]  41 01 28 65 6D 69 74 20 66 69 72 6D 77 61 72 65 0D 0A 15 00 00 00 01 01 00 00 3F 00 24 00 0E 50 4E 48 56 33 34 20 00 06 00 00 06 50 50 50 50 50
  can0       002  [18]  40 01 0F 74 65 6C 20 73 63 68 65 6D 61 20 67 69 74 0A
  can0  00008002  [03]  42 01 30
  can0       200  [48]  41 01 29 73 63 68 65 6D 61 20 67 69 74 0D 0A 49 00 00 00 10 00 00 04 68 61 73 68 00 13 14 04 01 01 E2 9D 61 B2 BA F4 E2 9C 6F FF C6 50 50 50 50
  can0  00008002  [03]  42 01 30
  can0       200  [48]  41 01 29 89 D8 EF E1 1F A4 09 3B 6F 00 05 64 69 72 74 79 00 02 01 00 00 09 74 69 6D 65 73 74 61 6D 70 00 04 08 01 04 68 00 60 00 00 50 50 50 50
  can0  00008002  [03]  42 01 30
  can0       200  [12]  41 01 07 00 00 00 00 00 00 00 50 50
  can0       002  [17]  40 01 0E 74 65 6C 20 66 6D 74 20 67 69 74 20 30 0A
  can0  00008002  [03]  42 01 30
  can0       200  [07]  41 01 04 4F 4B 0D 0A
  can0       002  [15]  40 01 0C 74 65 6C 20 67 65 74 20 67 69 74 0A
  can0  00008002  [03]  42 01 30
  can0       200  [48]  41 01 29 65 6D 69 74 20 67 69 74 0D 0A 1D 00 00 00 E2 9D 61 B2 BA F4 E2 9C 6F FF C6 89 D8 EF E1 1F A4 09 3B 6F 00 04 68 00 60 00 00 50 50 50 50
  can0  00008002  [03]  42 01 30
  can0       200  [05]  41 01 02 00 00
  can0       002  [27]  40 01 18 63 6F 6E 66 20 73 65 74 20 6D 6F 74 6F 72 2E 70 6F 6C 65 73 20 31 34 0A
  can0  00008002  [03]  42 01 30
  can0       200  [07]  41 01 04 4F 4B 0D 0A
  can0       002  [27]  40 01 18 63 6F 6E 66 20 73 65 74 20 6D 6F 74 6F 72 2E 69 6E 76 65 72 74 20 30 0A
  can0  00008002  [03]  42 01 30
  can0       200  [07]  41 01 04 4F 4B 0D 0A
  can0       002  [46]  40 01 2B 63 6F 6E 66 20 73 65 74 20 6D 6F 74 6F 72 2E 6F 66 66 73 65 74 2E 30 20 32 2E 35 39 36 36 36 36 34 38 35 30 39 31 37 39 34 37 0A
  can0  00008002  [03]  42 01 30
  can0       200  [07]  41 01 04 4F 4B 0D 0A
  can0       002  [46]  40 01 2B 63 6F 6E 66 20 73 65 74 20 6D 6F 74 6F 72 2E 6F 66 66 73 65 74 2E 31 20 32 2E 36 30 32 30 39 31 36 39 39 37 39 31 30 38 35 37 0A
  can0  00008002  [03]  42 01 30
  can0       200  [07]  41 01 04 4F 4B 0D 0A
  can0       002  [46]  40 01 2B 63 6F 6E 66 20 73 65 74 20 6D 6F 74 6F 72 2E 6F 66 66 73 65 74 2E 32 20 32 2E 36 32 33 34 35 31 39 37 36 38 30 32 33 36 35 34 0A
  can0  00008002  [03]  42 01 30
  can0       200  [07]  41 01 04 4F 4B 0D 0A
  can0       002  [46]  40 01 2B 63 6F 6E 66 20 73 65 74 20 6D 6F 74 6F 72 2E 6F 66 66 73 65 74 2E 33 20 32 2E 36 34 35 31 30 32 33 37 32 32 32 36 35 37 32 33 0A
  can0  00008002  [03]  42 01 30
  can0       200  [07]  41 01 04 4F 4B 0D 0A
  can0       002  [45]  40 01 2A 63 6F 6E 66 20 73 65 74 20 6D 6F 74 6F 72 2E 6F 66 66 73 65 74 2E 34 20 32 2E 36 32 34 30 31 31 34 33 39 39 31 38 39 30 35 0A
  can0  00008002  [03]  42 01 30
  can0       200  [07]  41 01 04 4F 4B 0D 0A
  can0       002  [46]  40 01 2B 63 6F 6E 66 20 73 65 74 20 6D 6F 74 6F 72 2E 6F 66 66 73 65 74 2E 35 20 32 2E 36 31 30 31 34 38 34 39 31 38 35 39 32 38 36 38 0A
  can0  00008002  [03]  42 01 30
  can0       200  [07]  41 01 04 4F 4B 0D 0A
  can0       002  [46]  40 01 2B 63 6F 6E 66 20 73 65 74 20 6D 6F 74 6F 72 2E 6F 66 66 73 65 74 2E 36 20 32 2E 36 32 30 30 36 34 32 32 36 35 35 30 33 38 37 35 0A
  can0  00008002  [03]  42 01 30
  can0       200  [07]  41 01 04 4F 4B 0D 0A
  can0       002  [46]  40 01 2B 63 6F 6E 66 20 73 65 74 20 6D 6F 74 6F 72 2E 6F 66 66 73 65 74 2E 37 20 32 2E 36 33 30 33 34 32 32 31 31 37 39 34 37 35 37 35 0A
  can0  00008002  [03]  42 01 30
  can0       200  [07]  41 01 04 4F 4B 0D 0A
  can0       002  [45]  40 01 2A 63 6F 6E 66 20 73 65 74 20 6D 6F 74 6F 72 2E 6F 66 66 73 65 74 2E 38 20 32 2E 36 33 34 30 39 32 35 39 34 33 33 36 36 33 36 0A
  can0  00008002  [03]  42 01 30
  can0       200  [07]  41 01 04 4F 4B 0D 0A
  can0       002  [45]  40 01 2A 63 6F 6E 66 20 73 65 74 20 6D 6F 74 6F 72 2E 6F 66 66 73 65 74 2E 39 20 32 2E 36 31 32 34 32 33 34 39 39 31 31 34 39 38 37 0A
  can0  00008002  [03]  42 01 30
  can0       200  [07]  41 01 04 4F 4B 0D 0A
  can0       002  [46]  40 01 2B 63 6F 6E 66 20 73 65 74 20 6D 6F 74 6F 72 2E 6F 66 66 73 65 74 2E 31 30 20 32 2E 35 37 35 37 37 32 34 38 32 38 30 37 31 36 34 0A
  can0  00008002  [03]  42 01 30
  can0       200  [07]  41 01 04 4F 4B 0D 0A
  can0       002  [46]  40 01 2B 63 6F 6E 66 20 73 65 74 20 6D 6F 74 6F 72 2E 6F 66 66 73 65 74 2E 31 31 20 32 2E 35 35 36 37 37 35 36 38 39 32 34 38 34 37 31 0A
  can0  00008002  [03]  42 01 30
  can0       200  [07]  41 01 04 4F 4B 0D 0A
  can0       002  [47]  40 01 2C 63 6F 6E 66 20 73 65 74 20 6D 6F 74 6F 72 2E 6F 66 66 73 65 74 2E 31 32 20 32 2E 35 37 35 33 31 36 32 35 33 39 38 30 30 39 37 33 0A
  can0  00008002  [03]  42 01 30
  can0       200  [07]  41 01 04 4F 4B 0D 0A
  can0       002  [45]  40 01 2A 63 6F 6E 66 20 73 65 74 20 6D 6F 74 6F 72 2E 6F 66 66 73 65 74 2E 31 33 20 32 2E 35 39 34 37 36 31 37 36 30 30 30 33 36 34 0A
  can0  00008002  [03]  42 01 30
  can0       200  [07]  41 01 04 4F 4B 0D 0A
  can0       002  [47]  40 01 2C 63 6F 6E 66 20 73 65 74 20 6D 6F 74 6F 72 2E 6F 66 66 73 65 74 2E 31 34 20 32 2E 35 39 32 37 37 39 35 35 33 32 30 30 32 33 34 37 0A
  can0  00008002  [03]  42 01 30
  can0       200  [07]  41 01 04 4F 4B 0D 0A
  can0       002  [47]  40 01 2C 63 6F 6E 66 20 73 65 74 20 6D 6F 74 6F 72 2E 6F 66 66 73 65 74 2E 31 35 20 32 2E 35 38 39 37 35 31 36 34 32 36 33 35 38 36 36 34 0A
  can0  00008002  [03]  42 01 30
  can0       200  [07]  41 01 04 4F 4B 0D 0A
  can0       002  [47]  40 01 2C 63 6F 6E 66 20 73 65 74 20 6D 6F 74 6F 72 2E 6F 66 66 73 65 74 2E 31 36 20 32 2E 35 36 33 35 38 32 37 30 34 33 37 33 39 36 31 36 0A
  can0  00008002  [03]  42 01 30
  can0       200  [07]  41 01 04 4F 4B 0D 0A
  can0       002  [47]  40 01 2C 63 6F 6E 66 20 73 65 74 20 6D 6F 74 6F 72 2E 6F 66 66 73 65 74 2E 31 37 20 32 2E 35 37 36 30 37 38 30 35 38 38 31 37 30 35 35 35 0A
  can0  00008002  [03]  42 01 30
  can0       200  [07]  41 01 04 4F 4B 0D 0A
  can0       002  [46]  40 01 2B 63 6F 6E 66 20 73 65 74 20 6D 6F 74 6F 72 2E 6F 66 66 73 65 74 2E 31 38 20 32 2E 35 39 34 38 36 35 35 37 33 36 33 35 37 36 33 0A
  can0  00008002  [03]  42 01 30
  can0       200  [07]  41 01 04 4F 4B 0D 0A
  can0       002  [47]  40 01 2C 63 6F 6E 66 20 73 65 74 20 6D 6F 74 6F 72 2E 6F 66 66 73 65 74 2E 31 39 20 32 2E 35 39 30 31 39 30 34 33 33 34 39 30 39 30 39 36 0A
  can0  00008002  [03]  42 01 30
  can0       200  [07]  41 01 04 4F 4B 0D 0A
  can0       002  [47]  40 01 2C 63 6F 6E 66 20 73 65 74 20 6D 6F 74 6F 72 2E 6F 66 66 73 65 74 2E 32 30 20 32 2E 35 35 37 33 33 34 31 37 34 31 32 35 33 30 37 35 0A
  can0  00008002  [03]  42 01 30
  can0       200  [07]  41 01 04 4F 4B 0D 0A
  can0       002  [46]  40 01 2B 63 6F 6E 66 20 73 65 74 20 6D 6F 74 6F 72 2E 6F 66 66 73 65 74 2E 32 31 20 32 2E 35 34 30 32 35 33 36 39 32 31 36 32 37 39 38 0A
  can0  00008002  [03]  42 01 30
  can0       200  [07]  41 01 04 4F 4B 0D 0A
  can0       002  [47]  40 01 2C 63 6F 6E 66 20 73 65 74 20 6D 6F 74 6F 72 2E 6F 66 66 73 65 74 2E 32 32 20 32 2E 35 34 33 30 31 32 35 35 33 33 33 37 34 30 38 34 0A
  can0  00008002  [03]  42 01 30
  can0       200  [07]  41 01 04 4F 4B 0D 0A
  can0       002  [46]  40 01 2B 63 6F 6E 66 20 73 65 74 20 6D 6F 74 6F 72 2E 6F 66 66 73 65 74 2E 32 33 20 32 2E 35 38 39 37 30 38 31 39 38 37 35 30 32 33 31 0A
  can0  00008002  [03]  42 01 30
  can0       200  [07]  41 01 04 4F 4B 0D 0A
  can0       002  [46]  40 01 2B 63 6F 6E 66 20 73 65 74 20 6D 6F 74 6F 72 2E 6F 66 66 73 65 74 2E 32 34 20 32 2E 36 32 36 36 31 32 32 39 30 37 34 35 39 39 38 0A
  can0  00008002  [03]  42 01 30
  can0       200  [07]  41 01 04 4F 4B 0D 0A
  can0       002  [47]  40 01 2C 63 6F 6E 66 20 73 65 74 20 6D 6F 74 6F 72 2E 6F 66 66 73 65 74 2E 32 35 20 32 2E 36 31 34 33 39 32 33 33 34 30 33 32 35 31 35 35 0A
  can0  00008002  [03]  42 01 30
  can0       200  [07]  41 01 04 4F 4B 0D 0A
  can0       002  [47]  40 01 2C 63 6F 6E 66 20 73 65 74 20 6D 6F 74 6F 72 2E 6F 66 66 73 65 74 2E 32 36 20 32 2E 35 39 33 32 36 30 39 39 31 35 38 31 38 37 33 34 0A
  can0  00008002  [03]  42 01 30
  can0       200  [07]  41 01 04 4F 4B 0D 0A
  can0       002  [46]  40 01 2B 63 6F 6E 66 20 73 65 74 20 6D 6F 74 6F 72 2E 6F 66 66 73 65 74 2E 32 37 20 32 2E 35 38 37 33 38 31 39 33 36 39 33 38 33 35 39 0A
  can0  00008002  [03]  42 01 30
  can0       200  [07]  41 01 04 4F 4B 0D 0A
  can0       002  [46]  40 01 2B 63 6F 6E 66 20 73 65 74 20 6D 6F 74 6F 72 2E 6F 66 66 73 65 74 2E 32 38 20 32 2E 35 37 38 30 32 33 30 37 31 38 31 31 38 30 37 0A
  can0  00008002  [03]  42 01 30
  can0       200  [07]  41 01 04 4F 4B 0D 0A
  can0       002  [46]  40 01 2B 63 6F 6E 66 20 73 65 74 20 6D 6F 74 6F 72 2E 6F 66 66 73 65 74 2E 32 39 20 32 2E 35 39 32 39 34 37 32 33 35 37 39 33 37 35 36 0A
  can0  00008002  [03]  42 01 30
  can0       200  [07]  41 01 04 4F 4B 0D 0A
  can0       002  [45]  40 01 2A 63 6F 6E 66 20 73 65 74 20 6D 6F 74 6F 72 2E 6F 66 66 73 65 74 2E 33 30 20 32 2E 35 39 34 36 37 30 36 34 30 37 31 39 32 38 0A
  can0  00008002  [03]  42 01 30
  can0       200  [07]  41 01 04 4F 4B 0D 0A
  can0       002  [47]  40 01 2C 63 6F 6E 66 20 73 65 74 20 6D 6F 74 6F 72 2E 6F 66 66 73 65 74 2E 33 31 20 32 2E 35 35 38 33 34 37 32 38 36 38 30 33 37 34 36 35 0A
  can0  00008002  [03]  42 01 30
  can0       200  [07]  41 01 04 4F 4B 0D 0A
  can0       002  [47]  40 01 2C 63 6F 6E 66 20 73 65 74 20 6D 6F 74 6F 72 2E 6F 66 66 73 65 74 2E 33 32 20 32 2E 35 33 36 34 37 36 36 32 38 35 31 37 38 32 37 35 0A
  can0  00008002  [03]  42 01 30
  can0       200  [07]  41 01 04 4F 4B 0D 0A
  can0       002  [47]  40 01 2C 63 6F 6E 66 20 73 65 74 20 6D 6F 74 6F 72 2E 6F 66 66 73 65 74 2E 33 33 20 32 2E 35 37 33 38 35 31 39 34 37 39 33 37 36 37 31 34 0A
  can0  00008002  [03]  42 01 30
  can0       200  [07]  41 01 04 4F 4B 0D 0A
  can0       002  [47]  40 01 2C 63 6F 6E 66 20 73 65 74 20 6D 6F 74 6F 72 2E 6F 66 66 73 65 74 2E 33 34 20 32 2E 36 30 33 35 31 31 38 34 37 38 37 36 37 35 30 37 0A
  can0  00008002  [03]  42 01 30
  can0       200  [07]  41 01 04 4F 4B 0D 0A
  can0       002  [46]  40 01 2B 63 6F 6E 66 20 73 65 74 20 6D 6F 74 6F 72 2E 6F 66 66 73 65 74 2E 33 35 20 32 2E 36 31 36 37 35 31 32 33 31 39 39 34 30 33 36 0A
  can0  00008002  [03]  42 01 30
  can0       200  [07]  41 01 04 4F 4B 0D 0A
  can0       002  [46]  40 01 2B 63 6F 6E 66 20 73 65 74 20 6D 6F 74 6F 72 2E 6F 66 66 73 65 74 2E 33 36 20 32 2E 36 32 30 35 33 30 38 39 39 32 37 39 35 33 37 0A
  can0  00008002  [03]  42 01 30
  can0       200  [07]  41 01 04 4F 4B 0D 0A
  can0       002  [45]  40 01 2A 63 6F 6E 66 20 73 65 74 20 6D 6F 74 6F 72 2E 6F 66 66 73 65 74 2E 33 37 20 32 2E 35 38 38 38 34 32 37 35 38 35 33 33 37 35 0A
  can0  00008002  [03]  42 01 30
  can0       200  [07]  41 01 04 4F 4B 0D 0A
  can0       002  [47]  40 01 2C 63 6F 6E 66 20 73 65 74 20 6D 6F 74 6F 72 2E 6F 66 66 73 65 74 2E 33 38 20 32 2E 35 37 32 38 37 38 39 37 32 34 35 33 34 37 39 33 0A
  can0  00008002  [03]  42 01 30
  can0       200  [07]  41 01 04 4F 4B 0D 0A
  can0       002  [47]  40 01 2C 63 6F 6E 66 20 73 65 74 20 6D 6F 74 6F 72 2E 6F 66 66 73 65 74 2E 33 39 20 32 2E 36 30 33 30 38 30 33 32 32 30 36 36 31 33 36 37 0A
  can0  00008002  [03]  42 01 30
  can0       200  [07]  41 01 04 4F 4B 0D 0A
  can0       002  [47]  40 01 2C 63 6F 6E 66 20 73 65 74 20 6D 6F 74 6F 72 2E 6F 66 66 73 65 74 2E 34 30 20 32 2E 36 33 30 35 36 36 38 38 32 34 38 36 37 34 32 38 0A
  can0  00008002  [03]  42 01 30
  can0       200  [07]  41 01 04 4F 4B 0D 0A
  can0       002  [47]  40 01 2C 63 6F 6E 66 20 73 65 74 20 6D 6F 74 6F 72 2E 6F 66 66 73 65 74 2E 34 31 20 32 2E 35 39 38 34 34 37 38 36 32 34 32 37 31 35 34 33 0A
  can0  00008002  [03]  42 01 30
  can0       200  [07]  41 01 04 4F 4B 0D 0A
  can0       002  [47]  40 01 2C 63 6F 6E 66 20 73 65 74 20 6D 6F 74 6F 72 2E 6F 66 66 73 65 74 2E 34 32 20 32 2E 35 38 30 37 30 37 38 32 36 30 33 30 36 39 30 34 0A
  can0  00008002  [03]  42 01 30
  can0       200  [07]  41 01 04 4F 4B 0D 0A
  can0       002  [47]  40 01 2C 63 6F 6E 66 20 73 65 74 20 6D 6F 74 6F 72 2E 6F 66 66 73 65 74 2E 34 33 20 32 2E 35 36 35 30 36 35 36 38 33 33 35 31 31 33 35 34 0A
  can0  00008002  [03]  42 01 30
  can0       200  [07]  41 01 04 4F 4B 0D 0A
  can0       002  [46]  40 01 2B 63 6F 6E 66 20 73 65 74 20 6D 6F 74 6F 72 2E 6F 66 66 73 65 74 2E 34 34 20 32 2E 35 35 30 35 30 30 32 36 30 35 31 36 38 37 31 0A
  can0  00008002  [03]  42 01 30
  can0       200  [07]  41 01 04 4F 4B 0D 0A
  can0       002  [46]  40 01 2B 63 6F 6E 66 20 73 65 74 20 6D 6F 74 6F 72 2E 6F 66 66 73 65 74 2E 34 35 20 32 2E 35 36 39 34 35 36 34 39 39 34 37 31 33 38 35 0A
  can0  00008002  [03]  42 01 30
  can0       200  [07]  41 01 04 4F 4B 0D 0A
  can0       002  [46]  40 01 2B 63 6F 6E 66 20 73 65 74 20 6D 6F 74 6F 72 2E 6F 66 66 73 65 74 2E 34 36 20 32 2E 35 38 34 37 36 30 38 36 32 36 38 35 39 39 33 0A
  can0  00008002  [03]  42 01 30
  can0       200  [07]  41 01 04 4F 4B 0D 0A
  can0       002  [46]  40 01 2B 63 6F 6E 66 20 73 65 74 20 6D 6F 74 6F 72 2E 6F 66 66 73 65 74 2E 34 37 20 32 2E 35 35 33 38 34 33 31 38 30 30 38 30 32 35 31 0A
  can0  00008002  [03]  42 01 30
  can0       200  [07]  41 01 04 4F 4B 0D 0A
  can0       002  [47]  40 01 2C 63 6F 6E 66 20 73 65 74 20 6D 6F 74 6F 72 2E 6F 66 66 73 65 74 2E 34 38 20 32 2E 35 33 39 36 39 39 36 32 30 30 35 38 33 34 34 34 0A
  can0  00008002  [03]  42 01 30
  can0       200  [07]  41 01 04 4F 4B 0D 0A
  can0       002  [46]  40 01 2B 63 6F 6E 66 20 73 65 74 20 6D 6F 74 6F 72 2E 6F 66 66 73 65 74 2E 34 39 20 32 2E 35 35 35 36 37 36 31 35 35 36 34 39 34 35 34 0A
  can0  00008002  [03]  42 01 30
  can0       200  [07]  41 01 04 4F 4B 0D 0A
  can0       002  [47]  40 01 2C 63 6F 6E 66 20 73 65 74 20 6D 6F 74 6F 72 2E 6F 66 66 73 65 74 2E 35 30 20 32 2E 35 36 37 31 34 32 30 30 38 36 31 35 32 35 38 33 0A
  can0  00008002  [03]  42 01 30
  can0       200  [07]  41 01 04 4F 4B 0D 0A
  can0       002  [47]  40 01 2C 63 6F 6E 66 20 73 65 74 20 6D 6F 74 6F 72 2E 6F 66 66 73 65 74 2E 35 31 20 32 2E 35 39 34 33 32 37 33 35 30 37 30 32 30 32 37 32 0A
  can0  00008002  [03]  42 01 30
  can0       200  [07]  41 01 04 4F 4B 0D 0A
  can0       002  [46]  40 01 2B 63 6F 6E 66 20 73 65 74 20 6D 6F 74 6F 72 2E 6F 66 66 73 65 74 2E 35 32 20 32 2E 36 31 39 37 32 35 36 30 32 30 36 37 38 33 33 0A
  can0  00008002  [03]  42 01 30
  can0       200  [07]  41 01 04 4F 4B 0D 0A
  can0       002  [46]  40 01 2B 63 6F 6E 66 20 73 65 74 20 6D 6F 74 6F 72 2E 6F 66 66 73 65 74 2E 35 33 20 32 2E 36 31 36 35 35 38 35 33 33 37 37 32 35 32 33 0A
  can0  00008002  [03]  42 01 30
  can0       200  [07]  41 01 04 4F 4B 0D 0A
  can0       002  [46]  40 01 2B 63 6F 6E 66 20 73 65 74 20 6D 6F 74 6F 72 2E 6F 66 66 73 65 74 2E 35 34 20 32 2E 36 33 36 38 33 37 33 30 33 37 31 31 32 35 35 0A
  can0  00008002  [03]  42 01 30
  can0       200  [07]  41 01 04 4F 4B 0D 0A
  can0       002  [47]  40 01 2C 63 6F 6E 66 20 73 65 74 20 6D 6F 74 6F 72 2E 6F 66 66 73 65 74 2E 35 35 20 32 2E 36 36 33 36 34 35 39 33 35 39 37 37 36 37 38 33 0A
  can0  00008002  [03]  42 01 30
  can0       200  [07]  41 01 04 4F 4B 0D 0A
  can0       002  [46]  40 01 2B 63 6F 6E 66 20 73 65 74 20 6D 6F 74 6F 72 2E 6F 66 66 73 65 74 2E 35 36 20 32 2E 36 35 35 39 31 32 30 39 36 38 32 30 34 37 32 0A
  can0  00008002  [03]  42 01 30
  can0       200  [07]  41 01 04 4F 4B 0D 0A
  can0       002  [46]  40 01 2B 63 6F 6E 66 20 73 65 74 20 6D 6F 74 6F 72 2E 6F 66 66 73 65 74 2E 35 37 20 32 2E 36 34 32 31 36 38 39 37 37 32 30 38 30 34 37 0A
  can0  00008002  [03]  42 01 30
  can0       200  [07]  41 01 04 4F 4B 0D 0A
  can0       002  [47]  40 01 2C 63 6F 6E 66 20 73 65 74 20 6D 6F 74 6F 72 2E 6F 66 66 73 65 74 2E 35 38 20 32 2E 36 33 36 37 32 35 31 30 33 37 39 38 38 35 37 33 0A
  can0  00008002  [03]  42 01 30
  can0       200  [07]  41 01 04 4F 4B 0D 0A
  can0       002  [46]  40 01 2B 63 6F 6E 66 20 73 65 74 20 6D 6F 74 6F 72 2E 6F 66 66 73 65 74 2E 35 39 20 32 2E 36 31 32 30 32 35 32 36 30 32 31 31 32 36 39 0A
  can0  00008002  [03]  42 01 30
  can0       200  [07]  41 01 04 4F 4B 0D 0A
  can0       002  [47]  40 01 2C 63 6F 6E 66 20 73 65 74 20 6D 6F 74 6F 72 2E 6F 66 66 73 65 74 2E 36 30 20 32 2E 36 32 30 35 39 36 32 34 31 38 31 38 36 38 33 37 0A
  can0  00008002  [03]  42 01 30
  can0       200  [07]  41 01 04 4F 4B 0D 0A
  can0       002  [45]  40 01 2A 63 6F 6E 66 20 73 65 74 20 6D 6F 74 6F 72 2E 6F 66 66 73 65 74 2E 36 31 20 32 2E 36 34 30 35 30 36 33 39 34 39 39 31 34 36 0A
  can0  00008002  [03]  42 01 30
  can0       200  [07]  41 01 04 4F 4B 0D 0A
  can0       002  [46]  40 01 2B 63 6F 6E 66 20 73 65 74 20 6D 6F 74 6F 72 2E 6F 66 66 73 65 74 2E 36 32 20 32 2E 36 31 34 38 35 35 32 36 33 34 33 30 32 34 38 0A
  can0  00008002  [03]  42 01 30
  can0       200  [07]  41 01 04 4F 4B 0D 0A
  can0       002  [46]  40 01 2B 63 6F 6E 66 20 73 65 74 20 6D 6F 74 6F 72 2E 6F 66 66 73 65 74 2E 36 33 20 32 2E 35 39 32 31 31 30 31 31 37 30 32 37 38 38 39 0A
  can0  00008002  [03]  42 01 30
  can0       200  [07]  41 01 04 4F 4B 0D 0A
  can0       002  [38]  40 01 23 63 6F 6E 66 20 73 65 74 20 6D 6F 74 6F 72 2E 72 65 73 69 73 74 61 6E 63 65 5F 6F 68 6D 20 31 2E 30 31 0A
  can0  00008002  [03]  42 01 30
  can0       200  [07]  41 01 04 4F 4B 0D 0A
  can0       002  [46]  40 01 2B 63 6F 6E 66 20 73 65 74 20 6D 6F 74 6F 72 2E 76 5F 70 65 72 5F 68 7A 20 30 2E 34 34 31 31 32 33 38 36 30 32 34 38 32 35 34 39 0A
  can0  00008002  [03]  42 01 30
  can0       200  [07]  41 01 04 4F 4B 0D 0A
  can0       002  [14]  40 01 0B 63 6F 6E 66 20 77 72 69 74 65 0A
  can0  00008002  [03]  42 01 30
  can0       200  [07]  41 01 04 4F 4B 0D 0A
  can0       001  [03]  01 00 00
  can0       002  [03]  01 00 00
  can0       001  [07]  0D B0 02 00 00 00 00
  can0       002  [07]  0D B0 02 00 00 00 00
  can0  00008001  [19]  01 00 09 0E 1C 00 00 80 3F 00 00 00 00 11 00 1F 01 13 0D
  can0       100  [24]  21 00 00 2F 01 00 80 8A BD 00 40 1C 3C 00 00 00 00 23 0D 46 1B 00 50 50
  can0  00008002  [35]  01 00 0A 0E 20 00 00 C0 7F 00 00 00 00 0E 23 00 00 00 00 00 00 80 3F 0D 27 00 00 C0 7F 11 00 1F 01 13 0D
  can0       200  [64]  21 00 00 2F 01 00 60 D8 3D 00 40 1C 3C 00 00 00 00 23 0D 46 1A 00 30 30 02 30 31 02 30 32 02 30 33 02 30 34 02 30 35 01 30 36 01 30 37 01 30 38 01 30 39 01 50 50 50 50 50 50 50 50 50 50 50 50
  can0  00008001  [19]  01 00 09 0E 1C 00 00 80 3F 00 00 00 00 11 00 1F 01 13 0D
  can0       100  [24]  21 00 09 2F 01 00 40 82 BD 00 93 23 3F 5C E8 A7 3C 23 0D 48 1B 00 50 50
  can0  00008002  [35]  01 00 0A 0E 20 00 00 C0 7F 00 00 00 00 0E 23 00 00 00 00 00 00 80 3F 0D 27 00 00 C0 7F 11 00 1F 01 13 0D
  can0       200  [64]  21 00 0A 2F 01 00 C0 D7 3D 00 B8 88 BD B4 5D FD 3C 23 0D 48 1A 00 30 01 02 30 02 02 30 03 02 30 04 02 30 05 02 30 06 01 30 07 01 30 08 01 30 09 01 50 50 50 50 50 50 50 50 50 50 50 50 50 50 50
  can0  00008001  [19]  01 00 09 0E 1C 00 00 80 3F 00 00 00 00 11 00 1F 01 13 0D
  can0       100  [24]  21 00 09 2F 01 00 40 2E BD C0 39 03 40 A8 F2 3C 3D 23 0D 48 1B 00 50 50
  can0  00008002  [35]  01 00 0A 0E 20 00 00 C0 7F 00 00 00 00 0E 23 00 00 00 00 00 00 80 3F 0D 27 00 00 C0 7F 11 00 1F 01 13 0D
  can0       200  [64]  21 00 00 2F 01 00 A0 AA 3D 40 D5 32 C0 00 00 00 00 23 0D 48 1A 00 30 30 02 30 31 02 30 32 02 30 33 02 30 34 02 30 35 01 30 36 01 30 37 01 30 38 01 30 39 01 50 50 50 50 50 50 50 50 50 50 50 50
  can0  00008001  [19]  01 00 09 0E 1C 00 00 80 3F 00 00 00 00 11 00 1F 01 13 0D
  can0       100  [24]  21 00 09 2F 01 00 00 CC BB 00 D1 6C 40 1A 28 15 3D 23 0D 48 1B 00 50 50
  can0  00008002  [35]  01 00 0A 0E 20 00 00 C0 7F 00 00 00 00 0E 23 00 00 00 00 00 00 80 3F 0D 27 00 00 C0 7F 11 00 1F 01 13 0D
  can0       200  [64]  21 00 0A 2F 01 00 00 3F 3D 00 77 7B C0 5A 22 20 3E 23 0D 46 1B 00 30 01 02 30 02 02 30 03 02 30 04 02 30 05 02 30 06 01 30 07 01 30 08 01 30 09 01 50 50 50 50 50 50 50 50 50 50 50 50 50 50 50
  can0  00008001  [19]  01 00 09 0E 1C 00 00 80 3F 00 00 00 00 11 00 1F 01 13 0D
  can0       100  [24]  21 00 09 2F 01 00 C0 4E 3D C0 6E 8F 40 4D 3B 75 3D 23 0D 46 1B 00 50 50
  can0  00008002  [35]  01 00 0A 0E 20 00 00 C0 7F 00 00 00 00 0E 23 00 00 00 00 00 00 80 3F 0D 27 00 00 C0 7F 11 00 1F 01 13 0D
  can0       200  [64]  21 00 00 2F 01 00 00 5B BC 60 13 8C C0 00 00 00 00 23 0D 48 1A 00 30 30 02 30 31 02 30 32 02 30 33 02 30 34 02 30 35 01 30 36 01 30 37 01 30 38 01 30 39 01 50 50 50 50 50 50 50 50 50 50 50 50
  can0  00008001  [19]  01 00 09 0E 1C 00 00 80 3F 00 00 00 00 11 00 1F 01 13 0D
  can0       100  [24]  21 00 09 2F 01 00 20 F0 3D A0 30 B6 40 35 A9 53 3D 23 0D 46 1B 00 50 50
  can0  00008002  [35]  01 00 0A 0E 20 00 00 C0 7F 00 00 00 00 0E 23 00 00 00 00 00 00 80 3F 0D 27 00 00 C0 7F 11 00 1F 01 13 0D
  can0       200  [64]  21 00 0A 2F 01 00 80 92 BD 40 FA 97 C0 72 4B 04 3E 23 0D 46 1A 00 30 01 02 30 02 02 30 03 02 30 04 02 30 05 02 30 06 01 30 07 01 30 08 01 30 09 01 50 50 50 50 50 50 50 50 50 50 50 50 50 50 50
  can0  00008001  [19]  01 00 09 0E 1C 00 00 80 3F 00 00 00 00 11 00 1F 01 13 0D
  can0       100  [24]  21 00 09 2F 01 00 90 25 3E 60 A2 89 40 C0 FF 8A BB 23 0D 48 1B 00 50 50
  can0  00008002  [35]  01 00 0A 0E 20 00 00 C0 7F 00 00 00 00 0E 23 00 00 00 00 00 00 80 3F 0D 27 00 00 C0 7F 11 00 1F 01 13 0D
  can0       200  [64]  21 00 00 2F 01 00 A0 02 BE E0 1F BE C0 00 00 00 00 23 0D 48 1A 00 30 30 02 30 31 02 30 32 02 30 33 02 30 34 02 30 35 01 30 36 01 30 37 01 30 38 01 30 39 01 50 50 50 50 50 50 50 50 50 50 50 50
  can0  00008001  [19]  01 00 09 0E 1C 00 00 80 3F 00 00 00 00 11 00 1F 01 13 0D
  can0       100  [24]  21 00 09 2F 01 00 70 80 3E 40 D5 B2 40 16 60 24 3E 23 0D 48 1B 00 50 50
  can0  00008002  [35]  01 00 0A 0E 20 00 00 C0 7F 00 00 00 00 0E 23 00 00 00 00 00 00 80 3F 0D 27 00 00 C0 7F 11 00 1F 01 13 0D
  can0       200  [64]  21 00 0A 2F 01 00 B0 4B BE 40 EC 43 C0 D1 74 62 3E 23 0D 48 1A 00 30 01 02 30 02 02 30 03 02 30 04 02 30 05 02 30 06 01 30 07 01 30 08 01 30 09 01 50 50 50 50 50 50 50 50 50 50 50 50 50 50 50
  can0  00008001  [19]  01 00 09 0E 1C 00 00 80 3F 00 00 00 00 11 00 1F 01 13 0D
  can0       100  [24]  21 00 09 2F 01 00 90 95 3E A0 CD 87 40 5E 4A 59 3D 23 0D 48 1B 00 50 50
  can0  00008002  [35]  01 00 0A 0E 20 00 00 C0 7F 00 00 00 00 0E 23 00 00 00 00 00 00 80 3F 0D 27 00 00 C0 7F 11 00 1F 01 13 0D
  can0       200  [64]  21 00 00 2F 01 00 A8 81 BE 80 00 B1 C0 00 00 00 00 23 0D 48 1A 00 30 30 02 30 31 02 30 32 02 30 33 02 30 34 02 30 35 01 30 36 01 30 37 01 30 38 01 30 39 01 50 50 50 50 50 50 50 50 50 50 50 50
  can0  00008001  [19]  01 00 09 0E 1C 00 00 80 3F 00 00 00 00 11 00 1F 01 13 0D
  can0       100  [24]  21 00 09 2F 01 00 48 BA 3E 00 F6 D1 40 A0 31 1F 3D 23 0D 46 1B 00 50 50
  can0  00008002  [35]  01 00 0A 0E 20 00 00 C0 7F 00 00 00 00 0E 23 00 00 00 00 00 00 80 3F 0D 27 00 00 C0 7F 11 00 1F 01 13 0D
  can0       200  [64]  21 00 0A 2F 01 00 90 A3 BE 40 28 BA C0 1B 1C 1E 3E 23 0D 48 1A 00 30 01 02 30 02 02 30 03 02 30 04 02 30 05 02 30 06 01 30 07 01 30 08 01 30 09 01 50 50 50 50 50 50 50 50 50 50 50 50 50 50 50
  can0  00008001  [19]  01 00 09 0E 1C 00 00 80 3F 00 00 00 00 11 00 1F 01 13 0D
  can0       100  [24]  21 00 09 2F 01 00 98 D3 3E 40 89 95 40 B8 A2 08 3D 23 0D 48 1B 00 50 50
  can0  00008002  [35]  01 00 0A 0E 20 00 00 C0 7F 00 00 00 00 0E 23 00 00 00 00 00 00 80 3F 0D 27 00 00 C0 7F 11 00 1F 01 13 0D
  can0       200  [64]  21 00 00 2F 01 00 38 C1 BE 20 5B E3 C0 00 00 00 00 23 0D 48 1A 00 30 30 02 30 31 02 30 32 02 30 33 02 30 34 02 30 35 01 30 36 01 30 37 01 30 38 01 30 39 01 50 50 50 50 50 50 50 50 50 50 50 50
  can0  00008001  [19]  01 00 09 0E 1C 00 00 80 3F 00 00 00 00 11 00 1F 01 13 0D
  can0       100  [24]  21 00 09 2F 01 00 60 FA 3E 00 7E E5 40 56 11 72 3D 23 0D 48 1B 00 50 50
  can0  00008002  [35]  01 00 0A 0E 20 00 00 C0 7F 00 00 00 00 0E 23 00 00 00 00 00 00 80 3F 0D 27 00 00 C0 7F 11 00 1F 01 13 0D
  can0       200  [64]  21 00 0A 2F 01 00 80 E4 BE 60 AB C6 C0 5E B1 52 3E 23 0D 46 1A 00 30 01 02 30 02 02 30 03 02 30 04 02 30 05 02 30 06 01 30 07 01 30 08 01 30 09 01 50 50 50 50 50 50 50 50 50 50 50 50 50 50 50
  can0  00008001  [19]  01 00 09 0E 1C 00 00 80 3F 00 00 00 00 11 00 1F 01 13 0D
  can0       100  [24]  21 00 09 2F 01 00 D0 0A 3F E0 F1 9B 40 BB 13 29 3C 23 0D 46 1B 00 50 50
  can0  00008002  [35]  01 00 0A 0E 20 00 00 C0 7F 00 00 00 00 0E 23 00 00 00 00 00 00 80 3F 0D 27 00 00 C0 7F 11 00 1F 01 13 0D
  can0       200  [64]  21 00 00 2F 01 00 30 01 BF C0 E1 E4 C0 00 00 00 00 23 0D 48 1A 00 30 30 02 30 31 02 30 32 02 30 33 02 30 34 02 30 35 01 30 36 01 30 37 01 30 38 01 30 39 01 50 50 50 50 50 50 50 50 50 50 50 50
  can0  00008001  [19]  01 00 09 0E 1C 00 00 80 3F 00 00 00 00 11 00 1F 01 13 0D
  can0       100  [24]  21 00 09 2F 01 00 E4 1E 3F 80 5C F5 40 39 89 CB 3C 23 0D 46 1B 00 50 50
  can0  00008002  [35]  01 00 0A 0E 20 00 00 C0 7F 00 00 00 00 0E 23 00 00 00 00 00 00 80 3F 0D 27 00 00 C0 7F 11 00 1F 01 13 0D
  can0       200  [64]  21 00 0A 2F 01 00 60 13 BF 20 62 CD C0 55 76 3E 3E 23 0D 48 1A 00 30 01 02 30 02 02 30 03 02 30 04 02 30 05 02 30 06 01 30 07 01 30 08 01 30 09 01 50 50 50 50 50 50 50 50 50 50 50 50 50 50 50
  can0  00008001  [19]  01 00 09 0E 1C 00 00 80 3F 00 00 00 00 11 00 1F 01 13 0D
  can0       100  [24]  21 00 09 2F 01 00 EC 31 3F 20 B5 D4 40 14 F8 45 3D 23 0D 48 1B 00 50 50
  can0  00008002  [35]  01 00 0A 0E 20 00 00 C0 7F 00 00 00 00 0E 23 00 00 00 00 00 00 80 3F 0D 27 00 00 C0 7F 11 00 1F 01 13 0D
  can0       200  [64]  21 00 00 2F 01 00 5C 28 BF C0 87 F3 C0 00 00 00 00 23 0D 46 1A 00 30 30 02 30 31 02 30 32 02 30 33 02 30 34 02 30 35 01 30 36 01 30 37 01 30 38 01 30 39 01 50 50 50 50 50 50 50 50 50 50 50 50
  can0  00008001  [19]  01 00 09 0E 1C 00 00 80 3F 00 00 00 00 11 00 1F 01 13 0D
  can0       100  [24]  21 00 09 2F 01 00 F8 49 3F 40 84 FE 40 E1 68 38 3D 23 0D 48 1B 00 50 50
  can0  00008002  [35]  01 00 0A 0E 20 00 00 C0 7F 00 00 00 00 0E 23 00 00 00 00 00 00 80 3F 0D 27 00 00 C0 7F 11 00 1F 01 13 0D
  can0       200  [64]  21 00 0A 2F 01 00 48 3D BF C0 59 D1 C0 F1 28 3D 3E 23 0D 48 1A 00 30 01 02 30 02 02 30 03 02 30 04 02 30 05 02 30 06 01 30 07 01 30 08 01 30 09 01 50 50 50 50 50 50 50 50 50 50 50 50 50 50 50
  can0  00008001  [19]  01 00 09 0E 1C 00 00 80 3F 00 00 00 00 11 00 1F 01 13 0D
  can0       100  [24]  21 00 09 2F 01 00 E8 57 3F 00 C8 AF 40 27 3C 38 3D 23 0D 48 1B 00 50 50
  can0  00008002  [35]  01 00 0A 0E 20 00 00 C0 7F 00 00 00 00 0E 23 00 00 00 00 00 00 80 3F 0D 27 00 00 C0 7F 11 00 1F 01 13 0D
  can0       200  [64]  21 00 00 2F 01 00 5C 4E BF C0 39 03 C1 00 00 00 00 23 0D 48 1A 00 30 30 02 30 31 02 30 32 02 30 33 02 30 34 02 30 35 01 30 36 01 30 37 01 30 38 01 30 39 01 50 50 50 50 50 50 50 50 50 50 50 50
  can0  00008001  [19]  01 00 09 0E 1C 00 00 80 3F 00 00 00 00 11 00 1F 01 13 0D
  can0       100  [24]  21 00 09 2F 01 00 40 6D 3F 10 FD 03 41 5D 2B 20 3D 23 0D 48 1B 00 50 50
  can0  00008002  [35]  01 00 0A 0E 20 00 00 C0 7F 00 00 00 00 0E 23 00 00 00 00 00 00 80 3F 0D 27 00 00 C0 7F 11 00 1F 01 13 0D
  can0       200  [64]  21 00 0A 2F 01 00 64 62 BF A0 5E D8 C0 0A 3D 61 3E 23 0D 48 1A 00 30 01 02 30 02 02 30 03 02 30 04 02 30 05 02 30 06 01 30 07 01 30 08 01 30 09 01 50 50 50 50 50 50 50 50 50 50 50 50 50 50 50
  can0  00008001  [19]  01 00 09 0E 1C 00 00 80 3F 00 00 00 00 11 00 1F 01 13 0D
  can0       100  [24]  21 00 09 2F 01 00 EC 7D 3F 00 6E BE 40 B9 15 2D 3D 23 0D 48 1B 00 50 50
  can0  00008002  [35]  01 00 0A 0E 20 00 00 C0 7F 00 00 00 00 0E 23 00 00 00 00 00 00 80 3F 0D 27 00 00 C0 7F 11 00 1F 01 13 0D
  can0       200  [64]  21 00 00 2F 01 00 38 75 BF 80 0E 05 C1 00 00 00 00 23 0D 48 1A 00 30 30 02 30 31 02 30 32 02 30 33 02 30 34 02 30 35 01 30 36 01 30 37 01 30 38 01 30 39 01 50 50 50 50 50 50 50 50 50 50 50 50
  can0  00008001  [19]  01 00 09 0E 1C 00 00 80 3F 00 00 00 00 11 00 1F 01 13 0D
  can0       100  [24]  21 00 09 2F 01 00 A8 8B 3F 70 58 07 41 F1 FA 3C 3D 23 0D 48 1B 00 50 50
  can0  00008002  [35]  01 00 0A 0E 20 00 00 C0 7F 00 00 00 00 0E 23 00 00 00 00 00 00 80 3F 0D 27 00 00 C0 7F 11 00 1F 01 13 0D
  can0       200  [64]  21 00 0A 2F 01 00 F8 85 BF E0 DC DD C0 41 9F 68 3E 23 0D 46 1A 00 30 01 02 30 02 02 30 03 02 30 04 02 30 05 02 30 06 01 30 07 01 30 08 01 30 09 01 50 50 50 50 50 50 50 50 50 50 50 50 50 50 50
  can0  00008001  [19]  01 00 09 0E 1C 00 00 80 3F 00 00 00 00 11 00 1F 01 13 0D
  can0       100  [24]  21 00 09 2F 01 00 20 93 3F E0 79 AF 40 D9 92 0C 3D 23 0D 48 1A 00 50 50
  can0  00008002  [35]  01 00 0A 0E 20 00 00 C0 7F 00 00 00 00 0E 23 00 00 00 00 00 00 80 3F 0D 27 00 00 C0 7F 11 00 1F 01 13 0D
  can0       200  [64]  21 00 00 2F 01 00 3A 8F BF 30 2D 09 C1 00 00 00 00 23 0D 48 1A 00 30 30 02 30 31 02 30 32 02 30 33 02 30 34 02 30 35 01 30 36 01 30 37 01 30 38 01 30 39 01 50 50 50 50 50 50 50 50 50 50 50 50
  can0  00008001  [19]  01 00 09 0E 1C 00 00 80 3F 00 00 00 00 11 00 1F 01 13 0D
  can0       100  [24]  21 00 09 2F 01 00 7E A0 3F 60 C0 04 41 91 99 82 3D 23 0D 48 1B 00 50 50
  can0  00008002  [35]  01 00 0A 0E 20 00 00 C0 7F 00 00 00 00 0E 23 00 00 00 00 00 00 80 3F 0D 27 00 00 C0 7F 11 00 1F 01 13 0D
  can0       200  [64]  21 00 0A 2F 01 00 04 9A BF 40 6B 9A C0 28 0F 78 3E 23 0D 48 1A 00 30 01 02 30 02 02 30 03 02 30 04 02 30 05 02 30 06 01 30 07 01 30 08 01 30 09 01 50 50 50 50 50 50 50 50 50 50 50 50 50 50 50
  can0  00008001  [19]  01 00 09 0E 1C 00 00 80 3F 00 00 00 00 11 00 1F 01 13 0D
  can0       100  [24]  21 00 09 2F 01 00 0C A7 3F 80 78 9D 40 AE 5F 3F 3D 23 0D 46 1B 00 50 50
  can0  00008002  [35]  01 00 0A 0E 20 00 00 C0 7F 00 00 00 00 0E 23 00 00 00 00 00 00 80 3F 0D 27 00 00 C0 7F 11 00 1F 01 13 0D
  can0       200  [64]  21 00 00 2F 01 00 DE A2 BF 40 13 FC C0 00 00 00 00 23 0D 46 1A 00 30 30 02 30 31 02 30 32 02 30 33 02 30 34 02 30 35 01 30 36 01 30 37 01 30 38 01 30 39 01 50 50 50 50 50 50 50 50 50 50 50 50
  can0  00008001  [19]  01 00 09 0E 1C 00 00 80 3F 00 00 00 00 11 00 1F 01 13 0D
  can0       100  [24]  21 00 09 2F 01 00 76 B3 3F 80 0E 05 41 90 7A 75 3D 23 0D 48 1B 00 50 50
  can0  00008002  [35]  01 00 0A 0E 20 00 00 C0 7F 00 00 00 00 0E 23 00 00 00 00 00 00 80 3F 0D 27 00 00 C0 7F 11 00 1F 01 13 0D
  can0       200  [64]  21 00 0A 2F 01 00 9A AD BF 20 2D C1 C0 6D 1B 32 3E 23 0D 48 1A 00 30 01 02 30 02 02 30 03 02 30 04 02 30 05 02 30 06 01 30 07 01 30 08 01 30 09 01 50 50 50 50 50 50 50 50 50 50 50 50 50 50 50
  can0  00008001  [19]  01 00 09 0E 1C 00 00 80 3F 00 00 00 00 11 00 1F 01 13 0D
  can0       100  [24]  21 00 09 2F 01 00 B0 BC 3F 80 4C CE 40 C8 99 03 3D 23 0D 48 1B 00 50 50
  can0  00008002  [35]  01 00 0A 0E 20 00 00 C0 7F 00 00 00 00 0E 23 00 00 00 00 00 00 80 3F 0D 27 00 00 C0 7F 11 00 1F 01 13 0D
  can0       200  [64]  21 00 00 2F 01 00 48 B8 BF 00 77 FB C0 00 00 00 00 23 0D 46 1A 00 30 30 02 30 31 02 30 32 02 30 33 02 30 34 02 30 35 01 30 36 01 30 37 01 30 38 01 30 39 01 50 50 50 50 50 50 50 50 50 50 50 50
  can0  00008001  [19]  01 00 09 0E 1C 00 00 80 3F 00 00 00 00 11 00 1F 01 13 0D
  can0       100  [24]  21 00 09 2F 01 00 74 C8 3F C0 1B 08 41 9B 3A 85 3D 23 0D 48 1B 00 50 50
  can0  00008002  [35]  01 00 0A 0E 20 00 00 C0 7F 00 00 00 00 0E 23 00 00 00 00 00 00 80 3F 0D 27 00 00 C0 7F 11 00 1F 01 13 0D
  can0       200  [64]  21 00 0A 2F 01 00 CE C2 BF 40 4F F2 C0 FB 64 83 3E 23 0D 46 1A 00 30 01 02 30 02 02 30 03 02 30 04 02 30 05 02 30 06 01 30 07 01 30 08 01 30 09 01 50 50 50 50 50 50 50 50 50 50 50 50 50 50 50
  can0  00008001  [19]  01 00 09 0E 1C 00 00 80 3F 00 00 00 00 11 00 1F 01 13 0D
  can0       100  [24]  21 00 09 2F 01 00 AE D0 3F 20 4B BC 40 91 54 54 3D 23 0D 46 1B 00 50 50
  can0  00008002  [35]  01 00 0A 0E 20 00 00 C0 7F 00 00 00 00 0E 23 00 00 00 00 00 00 80 3F 0D 27 00 00 C0 7F 11 00 1F 01 13 0D
  can0       200  [64]  21 00 00 2F 01 00 3E CC BF D0 95 0F C1 00 00 00 00 23 0D 48 1A 00 30 30 02 30 31 02 30 32 02 30 33 02 30 34 02 30 35 01 30 36 01 30 37 01 30 38 01 30 39 01 50 50 50 50 50 50 50 50 50 50 50 50
  can0  00008001  [19]  01 00 09 0E 1C 00 00 80 3F 00 00 00 00 11 00 1F 01 13 0D
  can0       100  [24]  21 00 09 2F 01 00 AC DC 3F 70 AB 0E 41 91 5A 89 3D 23 0D 46 1B 00 50 50
  can0  00008002  [35]  01 00 0A 0E 20 00 00 C0 7F 00 00 00 00 0E 23 00 00 00 00 00 00 80 3F 0D 27 00 00 C0 7F 11 00 1F 01 13 0D
  can0       200  [64]  21 00 0A 2F 01 00 54 D7 BF 40 A2 F9 C0 16 10 84 3E 23 0D 48 1A 00 30 01 02 30 02 02 30 03 02 30 04 02 30 05 02 30 06 01 30 07 01 30 08 01 30 09 01 50 50 50 50 50 50 50 50 50 50 50 50 50 50 50
  can0  00008001  [19]  01 00 09 0E 1C 00 00 80 3F 00 00 00 00 11 00 1F 01 13 0D
  can0       100  [24]  21 00 09 2F 01 00 BE E6 3F 40 56 DC 40 99 1A E1 3C 23 0D 46 1B 00 50 50
  can0  00008002  [35]  01 00 0A 0E 20 00 00 C0 7F 00 00 00 00 0E 23 00 00 00 00 00 00 80 3F 0D 27 00 00 C0 7F 11 00 1F 01 13 0D
  can0       200  [64]  21 00 00 2F 01 00 98 E2 BF 80 43 11 C1 00 00 00 00 23 0D 48 1A 00 30 30 02 30 31 02 30 32 02 30 33 02 30 34 02 30 35 01 30 36 01 30 37 01 30 38 01 30 39 01 50 50 50 50 50 50 50 50 50 50 50 50
  can0  00008001  [19]  01 00 09 0E 1C 00 00 80 3F 00 00 00 00 11 00 1F 01 13 0D
  can0       100  [24]  21 00 09 2F 01 00 3A F5 3F 20 CA 12 41 E6 46 39 3D 23 0D 48 1B 00 50 50
  can0  00008002  [35]  01 00 0A 0E 20 00 00 C0 7F 00 00 00 00 0E 23 00 00 00 00 00 00 80 3F 0D 27 00 00 C0 7F 11 00 1F 01 13 0D
  can0       200  [64]  21 00 0A 2F 01 00 3C EE BF E0 DC DD C0 B2 AC 51 3E 23 0D 46 1A 00 30 01 02 30 02 02 30 03 02 30 04 02 30 05 02 30 06 01 30 07 01 30 08 01 30 09 01 50 50 50 50 50 50 50 50 50 50 50 50 50 50 50
  can0  00008001  [19]  01 00 09 0E 1C 00 00 80 3F 00 00 00 00 11 00 1F 01 13 0D
  can0       100  [24]  21 00 09 2F 01 00 38 FC 3F C0 0D B4 40 5B D2 24 3D 23 0D 48 1B 00 50 50
  can0  00008002  [35]  01 00 0A 0E 20 00 00 C0 7F 00 00 00 00 0E 23 00 00 00 00 00 00 80 3F 0D 27 00 00 C0 7F 11 00 1F 01 13 0D
  can0       200  [64]  21 00 00 2F 01 00 96 F7 BF 20 77 0B C1 00 00 00 00 23 0D 48 1A 00 30 30 02 30 31 02 30 32 02 30 33 02 30 34 02 30 35 01 30 36 01 30 37 01 30 38 01 30 39 01 50 50 50 50 50 50 50 50 50 50 50 50
  can0  00008001  [19]  01 00 09 0E 1C 00 00 80 3F 00 00 00 00 11 00 1F 01 13 0D
  can0       100  [24]  21 00 09 2F 01 00 52 04 40 30 80 10 41 32 E2 11 3D 23 0D 46 1B 00 50 50
  can0  00008002  [35]  01 00 0A 0E 20 00 00 C0 7F 00 00 00 00 0E 23 00 00 00 00 00 00 80 3F 0D 27 00 00 C0 7F 11 00 1F 01 13 0D
  can0       200  [64]  21 00 0A 2F 01 00 63 01 C0 C0 BC FF C0 16 A8 74 3E 23 0D 46 1A 00 30 01 02 30 02 02 30 03 02 30 04 02 30 05 02 30 06 01 30 07 01 30 08 01 30 09 01 50 50 50 50 50 50 50 50 50 50 50 50 50 50 50
  can0  00008001  [19]  01 00 09 0E 1C 00 00 80 3F 00 00 00 00 11 00 1F 01 13 0D
  can0       100  [24]  21 00 09 2F 01 00 A4 08 40 20 80 C8 40 38 C6 F8 3C 23 0D 46 1B 00 50 50
  can0  00008002  [35]  01 00 0A 0E 20 00 00 C0 7F 00 00 00 00 0E 23 00 00 00 00 00 00 80 3F 0D 27 00 00 C0 7F 11 00 1F 01 13 0D
  can0       200  [64]  21 00 00 2F 01 00 60 06 C0 80 B4 13 C1 00 00 00 00 23 0D 48 1A 00 30 30 02 30 31 02 30 32 02 30 33 02 30 34 02 30 35 01 30 36 01 30 37 01 30 38 01 30 39 01 50 50 50 50 50 50 50 50 50 50 50 50
  can0  00008001  [19]  01 00 09 0E 1C 00 00 80 3F 00 00 00 00 11 00 1F 01 13 0D
  can0       100  [24]  21 00 09 2F 01 00 D6 0E 40 C0 DF 11 41 5B 9F 49 3D 23 0D 46 1B 00 50 50
  can0  00008002  [35]  01 00 0A 0E 20 00 00 C0 7F 00 00 00 00 0E 23 00 00 00 00 00 00 80 3F 0D 27 00 00 C0 7F 11 00 1F 01 13 0D
  can0       200  [64]  21 00 0A 2F 01 00 2A 0C C0 70 E7 04 C1 36 09 81 3E 23 0D 46 1A 00 30 01 02 30 02 02 30 03 02 30 04 02 30 05 02 30 06 01 30 07 01 30 08 01 30 09 01 50 50 50 50 50 50 50 50 50 50 50 50 50 50 50
  can0  00008001  [19]  01 00 09 0E 1C 00 00 80 3F 00 00 00 00 11 00 1F 01 13 0D
  can0       100  [24]  21 00 09 2F 01 00 DB 14 40 00 77 FB 40 2C EB 03 3D 23 0D 48 1B 00 50 50
  can0  00008002  [35]  01 00 0A 0E 20 00 00 C0 7F 00 00 00 00 0E 23 00 00 00 00 00 00 80 3F 0D 27 00 00 C0 7F 11 00 1F 01 13 0D
  can0       200  [64]  21 00 00 2F 01 00 97 12 C0 B0 65 0A C1 00 00 00 00 23 0D 48 1A 00 30 30 02 30 31 02 30 32 02 30 33 02 30 34 02 30 35 01 30 36 01 30 37 01 30 38 01 30 39 01 50 50 50 50 50 50 50 50 50 50 50 50
  can0  00008001  [19]  01 00 09 0E 1C 00 00 80 3F 00 00 00 00 11 00 1F 01 13 0D
  can0       100  [24]  21 00 09 2F 01 00 66 1C 40 00 40 1C 41 2E 47 9C 3D 23 0D 48 1B 00 50 50
  can0  00008002  [35]  01 00 0A 0E 20 00 00 C0 7F 00 00 00 00 0E 23 00 00 00 00 00 00 80 3F 0D 27 00 00 C0 7F 11 00 1F 01 13 0D
  can0       200  [64]  21 00 0A 2F 01 00 1D 19 C0 20 36 FE C0 BC E4 6D 3E 23 0D 48 1A 00 30 01 02 30 02 02 30 03 02 30 04 02 30 05 02 30 06 01 30 07 01 30 08 01 30 09 01 50 50 50 50 50 50 50 50 50 50 50 50 50 50 50
  can0  00008001  [19]  01 00 09 0E 1C 00 00 80 3F 00 00 00 00 11 00 1F 01 13 0D
  can0       100  [24]  21 00 09 2F 01 00 82 20 40 20 44 D2 40 6E 18 18 3D 23 0D 46 1B 00 50 50
  can0  00008002  [35]  01 00 0A 0E 20 00 00 C0 7F 00 00 00 00 0E 23 00 00 00 00 00 00 80 3F 0D 27 00 00 C0 7F 11 00 1F 01 13 0D
  can0       200  [64]  21 00 00 2F 01 00 06 1E C0 90 6A 11 C1 00 00 00 00 23 0D 48 1A 00 30 30 02 30 31 02 30 32 02 30 33 02 30 34 02 30 35 01 30 36 01 30 37 01 30 38 01 30 39 01 50 50 50 50 50 50 50 50 50 50 50 50
  can0  00008001  [19]  01 00 09 0E 1C 00 00 80 3F 00 00 00 00 11 00 1F 01 13 0D
  can0       100  [24]  21 00 09 2F 01 00 BC 26 40 00 5E 17 41 44 27 81 3D 23 0D 46 1B 00 50 50
  can0  00008002  [35]  01 00 0A 0E 20 00 00 C0 7F 00 00 00 00 0E 23 00 00 00 00 00 00 80 3F 0D 27 00 00 C0 7F 11 00 1F 01 13 0D
  can0       200  [64]  21 00 0A 2F 01 00 96 23 C0 E0 99 FD C0 03 3A 83 3E 23 0D 46 1A 00 30 01 02 30 02 02 30 03 02 30 04 02 30 05 02 30 06 01 30 07 01 30 08 01 30 09 01 50 50 50 50 50 50 50 50 50 50 50 50 50 50 50
  can0  00008001  [19]  01 00 09 0E 1C 00 00 80 3F 00 00 00 00 11 00 1F 01 13 0D
  can0       100  [24]  21 00 09 2F 01 00 CE 2A 40 80 88 C4 40 EC E1 07 3D 23 0D 48 1B 00 50 50
  can0  00008002  [35]  01 00 0A 0E 20 00 00 C0 7F 00 00 00 00 0E 23 00 00 00 00 00 00 80 3F 0D 27 00 00 C0 7F 11 00 1F 01 13 0D
  can0       200  [64]  21 00 00 2F 01 00 16 28 C0 60 31 07 C1 00 00 00 00 23 0D 48 1A 00 30 30 02 30 31 02 30 32 02 30 33 02 30 34 02 30 35 01 30 36 01 30 37 01 30 38 01 30 39 01 50 50 50 50 50 50 50 50 50 50 50 50
  can0  00008001  [19]  01 00 09 0E 1C 00 00 80 3F 00 00 00 00 11 00 1F 01 13 0D
  can0       100  [24]  21 00 09 2F 01 00 A0 30 40 F0 01 0B 41 75 89 92 3D 23 0D 46 1B 00 50 50
  can0  00008002  [35]  01 00 0A 0E 20 00 00 C0 7F 00 00 00 00 0E 23 00 00 00 00 00 00 80 3F 0D 27 00 00 C0 7F 11 00 1F 01 13 0D
  can0       200  [64]  21 00 0A 2F 01 00 D4 2D C0 40 C0 F4 C0 06 6C 8A 3E 23 0D 48 1A 00 30 01 02 30 02 02 30 03 02 30 04 02 30 05 02 30 06 01 30 07 01 30 08 01 30 09 01 50 50 50 50 50 50 50 50 50 50 50 50 50 50 50
  can0  00008001  [19]  01 00 09 0E 1C 00 00 80 3F 00 00 00 00 11 00 1F 01 13 0D
  can0       100  [24]  21 00 09 2F 01 00 AB 35 40 00 D8 D6 40 4C 4F 5B 3D 23 0D 46 1B 00 50 50
  can0  00008002  [35]  01 00 0A 0E 20 00 00 C0 7F 00 00 00 00 0E 23 00 00 00 00 00 00 80 3F 0D 27 00 00 C0 7F 11 00 1F 01 13 0D
  can0       200  [64]  21 00 00 2F 01 00 9E 33 C0 90 17 0A C1 00 00 00 00 23 0D 48 1A 00 30 30 02 30 31 02 30 32 02 30 33 02 30 34 02 30 35 01 30 36 01 30 37 01 30 38 01 30 39 01 50 50 50 50 50 50 50 50 50 50 50 50
  can0  00008001  [19]  01 00 09 0E 1C 00 00 80 3F 00 00 00 00 11 00 1F 01 13 0D
  can0       100  [24]  21 00 09 2F 01 00 5E 3C 40 90 6A 11 41 87 EB 22 3D 23 0D 48 1B 00 50 50
  can0  00008002  [35]  01 00 0A 0E 20 00 00 C0 7F 00 00 00 00 0E 23 00 00 00 00 00 00 80 3F 0D 27 00 00 C0 7F 11 00 1F 01 13 0D
  can0       200  [64]  21 00 0A 2F 01 00 65 39 C0 C0 AA 05 C1 FE F2 83 3E 23 0D 48 1A 00 30 01 02 30 02 02 30 03 02 30 04 02 30 05 02 30 06 01 30 07 01 30 08 01 30 09 01 50 50 50 50 50 50 50 50 50 50 50 50 50 50 50
  can0  00008001  [19]  01 00 09 0E 1C 00 00 80 3F 00 00 00 00 11 00 1F 01 13 0D
  can0       100  [24]  21 00 09 2F 01 00 9F 40 40 E0 36 CF 40 4C EF BF 3C 23 0D 48 1B 00 50 50
  can0  00008002  [35]  01 00 0A 0E 20 00 00 C0 7F 00 00 00 00 0E 23 00 00 00 00 00 00 80 3F 0D 27 00 00 C0 7F 11 00 1F 01 13 0D
  can0       200  [64]  21 00 00 2F 01 00 12 3E C0 F0 72 0D C1 00 00 00 00 23 0D 48 1A 00 30 30 02 30 31 02 30 32 02 30 33 02 30 34 02 30 35 01 30 36 01 30 37 01 30 38 01 30 39 01 50 50 50 50 50 50 50 50 50 50 50 50
  can0  00008001  [19]  01 00 09 0E 1C 00 00 80 3F 00 00 00 00 11 00 1F 01 13 0D
  can0       100  [24]  21 00 09 2F 01 00 D8 46 40 10 85 17 41 D2 F8 A9 3D 23 0D 48 1B 00 50 50
  can0  00008002  [35]  01 00 0A 0E 20 00 00 C0 7F 00 00 00 00 0E 23 00 00 00 00 00 00 80 3F 0D 27 00 00 C0 7F 11 00 1F 01 13 0D
  can0       200  [64]  21 00 0A 2F 01 00 BA 43 C0 80 5C F5 C0 E4 4C 89 3E 23 0D 48 1A 00 30 01 02 30 02 02 30 03 02 30 04 02 30 05 02 30 06 01 30 07 01 30 08 01 30 09 01 50 50 50 50 50 50 50 50 50 50 50 50 50 50 50
  can0  00008001  [19]  01 00 09 0E 1C 00 00 80 3F 00 00 00 00 11 00 1F 01 13 0D
  can0       100  [24]  21 00 09 2F 01 00 07 4B 40 A0 29 CC 40 50 52 D4 3C 23 0D 48 1B 00 50 50
  can0  00008002  [35]  01 00 0A 0E 20 00 00 C0 7F 00 00 00 00 0E 23 00 00 00 00 00 00 80 3F 0D 27 00 00 C0 7F 11 00 1F 01 13 0D
  can0       200  [64]  21 00 00 2F 01 00 60 49 C0 50 EC 0B C1 00 00 00 00 23 0D 46 1A 00 30 30 02 30 31 02 30 32 02 30 33 02 30 34 02 30 35 01 30 36 01 30 37 01 30 38 01 30 39 01 50 50 50 50 50 50 50 50 50 50 50 50
  can0  00008001  [19]  01 00 09 0E 1C 00 00 80 3F 00 00 00 00 11 00 1F 01 13 0D
  can0       100  [24]  21 00 09 2F 01 00 5C 52 40 50 3F 13 41 F6 47 82 3D 23 0D 48 1B 00 50 50
  can0  00008002  [35]  01 00 0A 0E 20 00 00 C0 7F 00 00 00 00 0E 23 00 00 00 00 00 00 80 3F 0D 27 00 00 C0 7F 11 00 1F 01 13 0D
  can0       200  [64]  21 00 0A 2F 01 00 AD 4F C0 A0 40 DD C0 FF 71 76 3E 23 0D 46 1A 00 30 01 02 30 02 02 30 03 02 30 04 02 30 05 02 30 06 01 30 07 01 30 08 01 30 09 01 50 50 50 50 50 50 50 50 50 50 50 50 50 50 50
  can0  00008001  [19]  01 00 09 0E 1C 00 00 80 3F 00 00 00 00 11 00 1F 01 13 0D
  can0       100  [24]  21 00 09 2F 01 00 07 57 40 20 9E C3 40 D8 50 C2 3C 23 0D 48 1B 00 50 50
  can0  00008002  [35]  01 00 0A 0E 20 00 00 C0 7F 00 00 00 00 0E 23 00 00 00 00 00 00 80 3F 0D 27 00 00 C0 7F 11 00 1F 01 13 0D
  can0       200  [64]  21 00 00 2F 01 00 8B 54 C0 C0 8C 0A C1 00 00 00 00 23 0D 46 1A 00 30 30 02 30 31 02 30 32 02 30 33 02 30 34 02 30 35 01 30 36 01 30 37 01 30 38 01 30 39 01 50 50 50 50 50 50 50 50 50 50 50 50
  can0  00008001  [19]  01 00 09 0E 1C 00 00 80 3F 00 00 00 00 11 00 1F 01 13 0D
  can0       100  [24]  21 00 09 2F 01 00 15 5D 40 60 F5 10 41 6D A4 AF 3C 23 0D 48 1B 00 50 50
  can0  00008002  [35]  01 00 0A 0E 20 00 00 C0 7F 00 00 00 00 0E 23 00 00 00 00 00 00 80 3F 0D 27 00 00 C0 7F 11 00 1F 01 13 0D
  can0       200  [64]  21 00 0A 2F 01 00 0F 5A C0 A0 7A 00 C1 D8 86 59 3E 23 0D 46 1A 00 30 01 02 30 02 02 30 03 02 30 04 02 30 05 02 30 06 01 30 07 01 30 08 01 30 09 01 50 50 50 50 50 50 50 50 50 50 50 50 50 50 50
  can0  00008001  [19]  01 00 09 0E 1C 00 00 80 3F 00 00 00 00 11 00 1F 01 13 0D
  can0       100  [24]  21 00 09 2F 01 00 47 61 40 40 3F CB 40 C2 3F 0B 3D 23 0D 46 1B 00 50 50
  can0  00008002  [35]  01 00 0A 0E 20 00 00 C0 7F 00 00 00 00 0E 23 00 00 00 00 00 00 80 3F 0D 27 00 00 C0 7F 11 00 1F 01 13 0D
  can0       200  [64]  21 00 00 2F 01 00 F1 5E C0 30 F1 12 C1 00 00 00 00 23 0D 48 1A 00 30 30 02 30 31 02 30 32 02 30 33 02 30 34 02 30 35 01 30 36 01 30 37 01 30 38 01 30 39 01 50 50 50 50 50 50 50 50 50 50 50 50
  can0  00008001  [19]  01 00 09 0E 1C 00 00 80 3F 00 00 00 00 11 00 1F 01 13 0D
  can0       100  [24]  21 00 09 2F 01 00 55 6A 40 40 92 52 40 EE 56 69 3E 23 0D 48 1B 00 50 50
  can0  00008002  [35]  01 00 0A 0E 20 00 00 C0 7F 00 00 00 00 0E 23 00 00 00 00 00 00 80 3F 0D 27 00 00 C0 7F 11 00 1F 01 13 0D
  can0       200  [64]  21 00 0A 2F 01 00 9C 66 C0 80 2E 53 C0 D4 EB 3E 3E 23 0D 48 1A 00 30 01 02 30 02 02 30 03 02 30 04 02 30 05 02 30 06 01 30 07 01 30 08 01 30 09 01 50 50 50 50 50 50 50 50 50 50 50 50 50 50 50
  can0  00008001  [19]  01 00 09 0E 1C 00 00 80 3F 00 00 00 00 11 00 1F 01 13 0D
  can0       100  [24]  21 00 09 2F 01 00 4B 6D 40 C0 14 9E 40 6D 5D 36 3D 23 0D 46 1B 00 50 50
  can0  00008002  [35]  01 00 0A 0E 20 00 00 C0 7F 00 00 00 00 0E 23 00 00 00 00 00 00 80 3F 0D 27 00 00 C0 7F 11 00 1F 01 13 0D
  can0       200  [64]  21 00 00 2F 01 00 AE 6A C0 C0 FF DF C0 00 00 00 00 23 0D 48 1A 00 30 30 02 30 31 02 30 32 02 30 33 02 30 34 02 30 35 01 30 36 01 30 37 01 30 38 01 30 39 01 50 50 50 50 50 50 50 50 50 50 50 50
  can0  00008001  [19]  01 00 09 0E 1C 00 00 80 3F 00 00 00 00 11 00 1F 01 13 0D
  can0       100  [24]  21 00 09 2F 01 00 DE 72 40 A0 AA F5 40 0A 26 33 3D 23 0D 48 1B 00 50 50
  can0  00008002  [35]  01 00 0A 0E 20 00 00 C0 7F 00 00 00 00 0E 23 00 00 00 00 00 00 80 3F 0D 27 00 00 C0 7F 11 00 1F 01 13 0D
  can0       200  [64]  21 00 0A 2F 01 00 62 6F C0 40 7B C1 C0 AF 7B 3E 3E 23 0D 48 1A 00 30 01 02 30 02 02 30 03 02 30 04 02 30 05 02 30 06 01 30 07 01 30 08 01 30 09 01 50 50 50 50 50 50 50 50 50 50 50 50 50 50 50
  can0  00008001  [19]  01 00 09 0E 1C 00 00 80 3F 00 00 00 00 11 00 1F 01 13 0D
  can0       100  [24]  21 00 09 2F 01 00 29 76 40 A0 19 A5 40 01 92 71 3D 23 0D 48 1B 00 50 50
  can0  00008002  [35]  01 00 0A 0E 20 00 00 C0 7F 00 00 00 00 0E 23 00 00 00 00 00 00 80 3F 0D 27 00 00 C0 7F 11 00 1F 01 13 0D
  can0       200  [64]  21 00 00 2F 01 00 9C 73 C0 A0 7A 00 C1 00 00 00 00 23 0D 46 1A 00 30 30 02 30 31 02 30 32 02 30 33 02 30 34 02 30 35 01 30 36 01 30 37 01 30 38 01 30 39 01 50 50 50 50 50 50 50 50 50 50 50 50
  can0  00008001  [19]  01 00 09 0E 1C 00 00 80 3F 00 00 00 00 11 00 1F 01 13 0D
  can0       100  [24]  21 00 09 2F 01 00 48 7B 40 00 77 FB 40 4E 9E 96 3D 23 0D 49 1B 00 50 50
  can0  00008002  [35]  01 00 0A 0E 20 00 00 C0 7F 00 00 00 00 0E 23 00 00 00 00 00 00 80 3F 0D 27 00 00 C0 7F 11 00 1F 01 13 0D
  can0       200  [64]  21 00 0A 2F 01 00 87 78 C0 C0 52 E7 C0 D2 FC 8A 3E 23 0D 48 1A 00 30 01 02 30 02 02 30 03 02 30 04 02 30 05 02 30 06 01 30 07 01 30 08 01 30 09 01 50 50 50 50 50 50 50 50 50 50 50 50 50 50 50
  can0  00008001  [19]  01 00 09 0E 1C 00 00 80 3F 00 00 00 00 11 00 1F 01 13 0D
  can0       100  [24]  21 00 09 2F 01 00 79 7F 40 60 76 BA 40 41 B4 11 3D 23 0D 46 1B 00 50 50
  can0  00008002  [35]  01 00 0A 0E 20 00 00 C0 7F 00 00 00 00 0E 23 00 00 00 00 00 00 80 3F 0D 27 00 00 C0 7F 11 00 1F 01 13 0D
  can0       200  [64]  21 00 00 2F 01 00 18 7F C0 00 65 01 C1 00 00 00 00 23 0D 48 1A 00 30 30 02 30 31 02 30 32 02 30 33 02 30 34 02 30 35 01 30 36 01 30 37 01 30 38 01 30 39 01 50 50 50 50 50 50 50 50 50 50 50 50
  can0  00008001  [19]  01 00 09 0E 1C 00 00 80 3F 00 00 00 00 11 00 1F 01 13 0D
  can0       100  [24]  21 00 09 2F 01 00 BE 83 40 D0 B3 0A 41 A4 DE 84 3D 23 0D 48 1B 00 50 50
  can0  00008002  [35]  01 00 0A 0E 20 00 00 C0 7F 00 00 00 00 0E 23 00 00 00 00 00 00 80 3F 0D 27 00 00 C0 7F 11 00 1F 01 13 0D
  can0       200  [64]  21 00 0A 2F 01 80 3E 82 C0 00 42 EF C0 65 DF 68 3E 23 0D 46 1A 00 30 01 02 30 02 02 30 03 02 30 04 02 30 05 02 30 06 01 30 07 01 30 08 01 30 09 01 50 50 50 50 50 50 50 50 50 50 50 50 50 50 50
  can0  00008001  [19]  01 00 09 0E 1C 00 00 80 3F 00 00 00 00 11 00 1F 01 13 0D
  can0       100  [24]  21 00 09 2F 01 80 A2 85 40 00 1B B7 40 0F 68 B9 3C 23 0D 46 1B 00 50 50
  can0  00008002  [35]  01 00 0A 0E 20 00 00 C0 7F 00 00 00 00 0E 23 00 00 00 00 00 00 80 3F 0D 27 00 00 C0 7F 11 00 1F 01 13 0D
  can0       200  [64]  21 00 00 2F 01 80 8B 84 C0 10 C1 0D C1 00 00 00 00 23 0D 48 1A 00 30 30 02 30 31 02 30 32 02 30 33 02 30 34 02 30 35 01 30 36 01 30 37 01 30 38 01 30 39 01 50 50 50 50 50 50 50 50 50 50 50 50
  can0  00008001  [19]  01 00 09 0E 1C 00 00 80 3F 00 00 00 00 11 00 1F 01 13 0D
  can0       100  [24]  21 00 09 2F 01 80 81 88 40 40 36 0E 41 88 7C CB 3D 23 0D 46 1B 00 50 50
  can0  00008002  [35]  01 00 0A 0E 20 00 00 C0 7F 00 00 00 00 0E 23 00 00 00 00 00 00 80 3F 0D 27 00 00 C0 7F 11 00 1F 01 13 0D
  can0       200  [64]  21 00 0A 2F 01 00 25 87 C0 20 AE EA C0 4D C7 9E 3E 23 0D 48 1A 00 30 01 02 30 02 02 30 03 02 30 04 02 30 05 02 30 06 01 30 07 01 30 08 01 30 09 01 50 50 50 50 50 50 50 50 50 50 50 50 50 50 50
  can0  00008001  [19]  01 00 09 0E 1C 00 00 80 3F 00 00 00 00 11 00 1F 01 13 0D
  can0       100  [24]  21 00 09 2F 01 00 93 8B 40 40 13 FC 40 0F 3B E8 3C 23 0D 48 1B 00 50 50
  can0  00008002  [35]  01 00 0A 0E 20 00 00 C0 7F 00 00 00 00 0E 23 00 00 00 00 00 00 80 3F 0D 27 00 00 C0 7F 11 00 1F 01 13 0D
  can0       200  [64]  21 00 00 2F 01 80 8E 8A C0 60 D7 15 C1 00 00 00 00 23 0D 46 1A 00 30 30 02 30 31 02 30 32 02 30 33 02 30 34 02 30 35 01 30 36 01 30 37 01 30 38 01 30 39 01 50 50 50 50 50 50 50 50 50 50 50 50
  can0  00008001  [19]  01 00 09 0E 1C 00 00 80 3F 00 00 00 00 11 00 1F 01 13 0D
  can0       100  [24]  21 00 09 2F 01 00 0A 8F 40 50 21 18 41 04 2F 50 3D 23 0D 48 1B 00 50 50
  can0  00008002  [35]  01 00 0A 0E 20 00 00 C0 7F 00 00 00 00 0E 23 00 00 00 00 00 00 80 3F 0D 27 00 00 C0 7F 11 00 1F 01 13 0D
  can0       200  [64]  21 00 0A 2F 01 80 9F 8D C0 C0 C8 00 C1 76 B2 57 3E 23 0D 48 1A 00 30 01 02 30 02 02 30 03 02 30 04 02 30 05 02 30 06 01 30 07 01 30 08 01 30 09 01 50 50 50 50 50 50 50 50 50 50 50 50 50 50 50
  can0  00008001  [19]  01 00 09 0E 1C 00 00 80 3F 00 00 00 00 11 00 1F 01 13 0D
  can0       100  [24]  21 00 09 2F 01 80 69 91 40 C0 AC D8 40 D2 5B 38 3D 23 0D 46 1B 00 50 50
  can0  00008002  [35]  01 00 0A 0E 20 00 00 C0 7F 00 00 00 00 0E 23 00 00 00 00 00 00 80 3F 0D 27 00 00 C0 7F 11 00 1F 01 13 0D
  can0       200  [64]  21 00 00 2F 01 00 73 90 C0 F0 FA 20 C1 00 00 00 00 23 0D 48 1A 00 30 30 02 30 31 02 30 32 02 30 33 02 30 34 02 30 35 01 30 36 01 30 37 01 30 38 01 30 39 01 50 50 50 50 50 50 50 50 50 50 50 50
  can0  00008001  [19]  01 00 09 0E 1C 00 00 80 3F 00 00 00 00 11 00 1F 01 13 0D
  can0       100  [24]  21 00 09 2F 01 80 C0 94 40 20 FF 1E 41 0A 5C 73 3D 23 0D 48 1B 00 50 50
  can0  00008002  [35]  01 00 0A 0E 20 00 00 C0 7F 00 00 00 00 0E 23 00 00 00 00 00 00 80 3F 0D 27 00 00 C0 7F 11 00 1F 01 13 0D
  can0       200  [64]  21 00 0A 2F 01 00 52 93 C0 F0 AE 03 C1 7C 72 8D 3E 23 0D 46 1A 00 30 01 02 30 02 02 30 03 02 30 04 02 30 05 02 30 06 01 30 07 01 30 08 01 30 09 01 50 50 50 50 50 50 50 50 50 50 50 50 50 50 50
  can0  00008001  [19]  01 00 09 0E 1C 00 00 80 3F 00 00 00 00 11 00 1F 01 13 0D
  can0       100  [24]  21 00 09 2F 01 80 FE 96 40 00 85 CF 40 49 88 37 3D 23 0D 48 1B 00 50 50
  can0  00008002  [35]  01 00 0A 0E 20 00 00 C0 7F 00 00 00 00 0E 23 00 00 00 00 00 00 80 3F 0D 27 00 00 C0 7F 11 00 1F 01 13 0D
  can0       200  [64]  21 00 00 2F 01 00 C9 95 C0 40 18 13 C1 00 00 00 00 23 0D 48 1A 00 30 30 02 30 31 02 30 32 02 30 33 02 30 34 02 30 35 01 30 36 01 30 37 01 30 38 01 30 39 01 50 50 50 50 50 50 50 50 50 50 50 50
  can0  00008001  [19]  01 00 09 0E 1C 00 00 80 3F 00 00 00 00 11 00 1F 01 13 0D
  can0       100  [24]  21 00 09 2F 01 00 22 9A 40 90 DB 13 41 F4 28 6E 3D 23 0D 48 1B 00 50 50
  can0  00008002  [35]  01 00 0A 0E 20 00 00 C0 7F 00 00 00 00 0E 23 00 00 00 00 00 00 80 3F 0D 27 00 00 C0 7F 11 00 1F 01 13 0D
  can0       200  [64]  21 00 0A 2F 01 80 A2 98 C0 40 13 FC C0 C9 8F 91 3E 23 0D 46 1B 00 30 01 02 30 02 02 30 03 02 30 04 02 30 05 02 30 06 01 30 07 01 30 08 01 30 09 01 50 50 50 50 50 50 50 50 50 50 50 50 50 50 50
  can0  00008001  [19]  01 00 09 0E 1C 00 00 80 3F 00 00 00 00 11 00 1F 01 13 0D
  can0       100  [24]  21 00 09 2F 01 00 54 9C 40 00 85 CF 40 79 59 79 3D 23 0D 48 1B 00 50 50
  can0  00008002  [35]  01 00 0A 0E 20 00 00 C0 7F 00 00 00 00 0E 23 00 00 00 00 00 00 80 3F 0D 27 00 00 C0 7F 11 00 1F 01 13 0D
  can0       200  [64]  21 00 00 2F 01 80 55 9B C0 20 1D 1A C1 00 00 00 00 23 0D 48 1A 00 30 30 02 30 31 02 30 32 02 30 33 02 30 34 02 30 35 01 30 36 01 30 37 01 30 38 01 30 39 01 50 50 50 50 50 50 50 50 50 50 50 50
  can0  00008001  [19]  01 00 09 0E 1C 00 00 80 3F 00 00 00 00 11 00 1F 01 13 0D
  can0       100  [24]  21 00 09 2F 01 80 AD A0 40 80 BD D0 40 D9 5D B6 3E 23 0D 48 1B 00 50 50
  can0  00008002  [35]  01 00 0A 0E 20 00 00 C0 7F 00 00 00 00 0E 23 00 00 00 00 00 00 80 3F 0D 27 00 00 C0 7F 11 00 1F 01 13 0D
  can0       200  [64]  21 00 0A 2F 01 00 F4 9E C0 C0 16 71 C0 04 83 5C 3E 23 0D 48 1A 00 30 01 02 30 02 02 30 03 02 30 04 02 30 05 02 30 06 01 30 07 01 30 08 01 30 09 01 50 50 50 50 50 50 50 50 50 50 50 50 50 50 50
  can0  00008001  [19]  01 00 09 0E 1C 00 00 80 3F 00 00 00 00 11 00 1F 01 13 0D
  can0       100  [24]  21 00 09 2F 01 00 89 A2 40 20 BC BE 40 18 EA 27 3D 23 0D 48 1B 00 50 50
  can0  00008002  [35]  01 00 0A 0E 20 00 00 C0 7F 00 00 00 00 0E 23 00 00 00 00 00 00 80 3F 0D 27 00 00 C0 7F 11 00 1F 01 13 0D
  can0       200  [64]  21 00 00 2F 01 00 5D A1 C0 20 1F ED C0 00 00 00 00 23 0D 48 1A 00 30 30 02 30 31 02 30 32 02 30 33 02 30 34 02 30 35 01 30 36 01 30 37 01 30 38 01 30 39 01 50 50 50 50 50 50 50 50 50 50 50 50
  can0  00008001  [19]  01 00 09 0E 1C 00 00 80 3F 00 00 00 00 11 00 1F 01 13 0D
  can0       100  [24]  21 00 09 2F 01 00 71 A6 40 20 69 B7 40 92 E5 9E 3E 23 0D 46 1B 00 50 50
  can0  00008002  [35]  01 00 0A 0E 20 00 00 C0 7F 00 00 00 00 0E 23 00 00 00 00 00 00 80 3F 0D 27 00 00 C0 7F 11 00 1F 01 13 0D
  can0       200  [64]  21 00 0A 2F 01 00 BF A4 C0 80 A6 3F C0 7B 7A 50 3E 23 0D 46 1A 00 30 01 02 30 02 02 30 03 02 30 04 02 30 05 02 30 06 01 30 07 01 30 08 01 30 09 01 50 50 50 50 50 50 50 50 50 50 50 50 50 50 50
  can0  00008001  [19]  01 00 09 0E 1C 00 00 80 3F 00 00 00 00 11 00 1F 01 13 0D
  can0       100  [24]  21 00 09 2F 01 80 FA A7 40 60 2A 9D 40 0A 95 24 3D 23 0D 46 1B 00 50 50
  can0  00008002  [35]  01 00 0A 0E 20 00 00 C0 7F 00 00 00 00 0E 23 00 00 00 00 00 00 80 3F 0D 27 00 00 C0 7F 11 00 1F 01 13 0D
  can0       200  [64]  21 00 00 2F 01 00 D4 A6 C0 80 63 DF C0 00 00 00 00 23 0D 48 1A 00 30 30 02 30 31 02 30 32 02 30 33 02 30 34 02 30 35 01 30 36 01 30 37 01 30 38 01 30 39 01 50 50 50 50 50 50 50 50 50 50 50 50
  can0  00008001  [19]  01 00 09 0E 1C 00 00 80 3F 00 00 00 00 11 00 1F 01 13 0D
  can0       100  [24]  21 00 09 2F 01 00 A7 AA 40 20 72 F4 40 20 C3 74 3D 23 0D 46 1B 00 50 50
  can0  00008002  [35]  01 00 0A 0E 20 00 00 C0 7F 00 00 00 00 0E 23 00 00 00 00 00 00 80 3F 0D 27 00 00 C0 7F 11 00 1F 01 13 0D
  can0       200  [64]  21 00 0A 2F 01 80 64 A9 C0 40 1A E6 C0 8F A7 74 3E 23 0D 46 1A 00 30 01 02 30 02 02 30 03 02 30 04 02 30 05 02 30 06 01 30 07 01 30 08 01 30 09 01 50 50 50 50 50 50 50 50 50 50 50 50 50 50 50
  can0  00008001  [19]  01 00 09 0E 1C 00 00 80 3F 00 00 00 00 11 00 1F 01 13 0D
  can0       100  [24]  21 00 09 2F 01 00 95 AC 40 A0 6C AC 40 5F 0C AD 3C 23 0D 48 1B 00 50 50
  can0  00008002  [35]  01 00 0A 0E 20 00 00 C0 7F 00 00 00 00 0E 23 00 00 00 00 00 00 80 3F 0D 27 00 00 C0 7F 11 00 1F 01 13 0D
  can0       200  [64]  21 00 00 2F 01 00 8D AB C0 80 0E 05 C1 00 00 00 00 23 0D 48 1A 00 30 30 02 30 31 02 30 32 02 30 33 02 30 34 02 30 35 01 30 36 01 30 37 01 30 38 01 30 39 01 50 50 50 50 50 50 50 50 50 50 50 50
  can0  00008001  [19]  01 00 09 0E 1C 00 00 80 3F 00 00 00 00 11 00 1F 01 13 0D
  can0       100  [24]  21 00 09 2F 01 00 66 AF 40 B0 F4 07 41 53 81 3C 3D 23 0D 48 1B 00 50 50
  can0  00008002  [35]  01 00 0A 0E 20 00 00 C0 7F 00 00 00 00 0E 23 00 00 00 00 00 00 80 3F 0D 27 00 00 C0 7F 11 00 1F 01 13 0D
  can0       200  [64]  21 00 0A 2F 01 80 25 AE C0 40 8B E8 C0 7B 8B 4D 3E 23 0D 46 1A 00 30 01 02 30 02 02 30 03 02 30 04 02 30 05 02 30 06 01 30 07 01 30 08 01 30 09 01 50 50 50 50 50 50 50 50 50 50 50 50 50 50 50
  can0  00008001  [19]  01 00 09 0E 1C 00 00 80 3F 00 00 00 00 11 00 1F 01 13 0D
  can0       100  [24]  21 00 09 2F 01 00 73 B1 40 60 05 B8 40 5A 50 76 3D 23 0D 48 1B 00 50 50
  can0  00008002  [35]  01 00 0A 0E 20 00 00 C0 7F 00 00 00 00 0E 23 00 00 00 00 00 00 80 3F 0D 27 00 00 C0 7F 11 00 1F 01 13 0D
  can0       200  [64]  21 00 00 2F 01 80 72 B0 C0 E0 BC 0F C1 00 00 00 00 23 0D 46 1A 00 30 30 02 30 31 02 30 32 02 30 33 02 30 34 02 30 35 01 30 36 01 30 37 01 30 38 01 30 39 01 50 50 50 50 50 50 50 50 50 50 50 50
  can0  00008001  [19]  01 00 09 0E 1C 00 00 80 3F 00 00 00 00 11 00 1F 01 13 0D
  can0       100  [24]  21 00 09 2F 01 00 B0 B4 40 D0 06 12 41 BB CF 49 3D 23 0D 48 1B 00 50 50
  can0  00008002  [35]  01 00 0A 0E 20 00 00 C0 7F 00 00 00 00 0E 23 00 00 00 00 00 00 80 3F 0D 27 00 00 C0 7F 11 00 1F 01 13 0D
  can0       200  [64]  21 00 0A 2F 01 00 57 B3 C0 A0 E6 EB C0 36 C0 52 3E 23 0D 48 1A 00 30 01 02 30 02 02 30 03 02 30 04 02 30 05 02 30 06 01 30 07 01 30 08 01 30 09 01 50 50 50 50 50 50 50 50 50 50 50 50 50 50 50
  can0  00008001  [19]  01 00 09 0E 1C 00 00 80 3F 00 00 00 00 11 00 1F 01 13 0D
  can0       100  [24]  21 00 09 2F 01 80 ED B6 40 E0 C5 CC 40 C7 E6 4E 3D 23 0D 48 1B 00 50 50
  can0  00008002  [35]  01 00 0A 0E 20 00 00 C0 7F 00 00 00 00 0E 23 00 00 00 00 00 00 80 3F 0D 27 00 00 C0 7F 11 00 1F 01 13 0D
  can0       200  [64]  21 00 00 2F 01 00 F0 B5 C0 40 6B 1A C1 00 00 00 00 23 0D 46 1A 00 30 30 02 30 31 02 30 32 02 30 33 02 30 34 02 30 35 01 30 36 01 30 37 01 30 38 01 30 39 01 50 50 50 50 50 50 50 50 50 50 50 50
  can0  00008001  [19]  01 00 09 0E 1C 00 00 80 3F 00 00 00 00 11 00 1F 01 13 0D
  can0       100  [24]  21 00 09 2F 01 80 F9 B9 40 D0 06 12 41 4C 41 39 3D 23 0D 48 1B 00 50 50
  can0  00008002  [35]  01 00 0A 0E 20 00 00 C0 7F 00 00 00 00 0E 23 00 00 00 00 00 00 80 3F 0D 27 00 00 C0 7F 11 00 1F 01 13 0D
  can0       200  [64]  21 00 0A 2F 01 00 9E B8 C0 20 72 F4 C0 AC 84 8A 3E 23 0D 46 1A 00 30 01 02 30 02 02 30 03 02 30 04 02 30 05 02 30 06 01 30 07 01 30 08 01 30 09 01 50 50 50 50 50 50 50 50 50 50 50 50 50 50 50
  can0  00008001  [19]  01 00 09 0E 1C 00 00 80 3F 00 00 00 00 11 00 1F 01 13 0D
  can0       100  [24]  21 00 09 2F 01 80 1A BC 40 C0 D1 BD 40 B8 B9 D6 3C 23 0D 48 1B 00 50 50
  can0  00008002  [35]  01 00 0A 0E 20 00 00 C0 7F 00 00 00 00 0E 23 00 00 00 00 00 00 80 3F 0D 27 00 00 C0 7F 11 00 1F 01 13 0D
  can0       200  [64]  21 00 00 2F 01 80 18 BB C0 70 E0 1A C1 00 00 00 00 23 0D 46 1A 00 30 30 02 30 31 02 30 32 02 30 33 02 30 34 02 30 35 01 30 36 01 30 37 01 30 38 01 30 39 01 50 50 50 50 50 50 50 50 50 50 50 50
  can0  00008001  [19]  01 00 09 0E 1C 00 00 80 3F 00 00 00 00 11 00 1F 01 13 0D
  can0       100  [24]  21 00 09 2F 01 80 2A BF 40 40 18 13 41 D7 0C F9 3C 23 0D 46 1B 00 50 50
  can0  00008002  [35]  01 00 0A 0E 20 00 00 C0 7F 00 00 00 00 0E 23 00 00 00 00 00 00 80 3F 0D 27 00 00 C0 7F 11 00 1F 01 13 0D
  can0       200  [64]  21 00 0A 2F 01 80 D3 BD C0 C0 F8 F5 C0 73 B4 78 3E 23 0D 46 1B 00 30 01 02 30 02 02 30 03 02 30 04 02 30 05 02 30 06 01 30 07 01 30 08 01 30 09 01 50 50 50 50 50 50 50 50 50 50 50 50 50 50 50
  can0  00008001  [19]  01 00 09 0E 1C 00 00 80 3F 00 00 00 00 11 00 1F 01 13 0D
  can0       100  [24]  21 00 09 2F 01 80 62 C1 40 40 B0 CD 40 7F 22 3C 3D 23 0D 48 1B 00 50 50
  can0  00008002  [35]  01 00 0A 0E 20 00 00 C0 7F 00 00 00 00 0E 23 00 00 00 00 00 00 80 3F 0D 27 00 00 C0 7F 11 00 1F 01 13 0D
  can0       200  [64]  21 00 00 2F 01 80 7F C0 C0 70 51 1D C1 00 00 00 00 23 0D 48 1A 00 30 30 02 30 31 02 30 32 02 30 33 02 30 34 02 30 35 01 30 36 01 30 37 01 30 38 01 30 39 01 50 50 50 50 50 50 50 50 50 50 50 50
  can0  00008001  [19]  01 00 09 0E 1C 00 00 80 3F 00 00 00 00 11 00 1F 01 13 0D
  can0       100  [24]  21 00 09 2F 01 00 B7 C4 40 C0 C1 16 41 C9 BE 76 3D 23 0D 48 1B 00 50 50
  can0  00008002  [35]  01 00 0A 0E 20 00 00 C0 7F 00 00 00 00 0E 23 00 00 00 00 00 00 80 3F 0D 27 00 00 C0 7F 11 00 1F 01 13 0D
  can0       200  [64]  21 00 0A 2F 01 00 58 C3 C0 80 7A F0 C0 41 9F 45 3E 23 0D 48 1A 00 30 01 02 30 02 02 30 03 02 30 04 02 30 05 02 30 06 01 30 07 01 30 08 01 30 09 01 50 50 50 50 50 50 50 50 50 50 50 50 50 50 50
  can0  00008001  [19]  01 00 09 0E 1C 00 00 80 3F 00 00 00 00 11 00 1F 01 13 0D
  can0       100  [24]  21 00 09 2F 01 80 0B C7 40 80 9F D5 40 CD 3D 1D 3D 23 0D 46 1B 00 50 50
  can0  00008002  [35]  01 00 0A 0E 20 00 00 C0 7F 00 00 00 00 0E 23 00 00 00 00 00 00 80 3F 0D 27 00 00 C0 7F 11 00 1F 01 13 0D
  can0       200  [64]  21 00 00 2F 01 80 1E C6 C0 50 21 18 C1 00 00 00 00 23 0D 46 1A 00 30 30 02 30 31 02 30 32 02 30 33 02 30 34 02 30 35 01 30 36 01 30 37 01 30 38 01 30 39 01 50 50 50 50 50 50 50 50 50 50 50 50
  can0  00008001  [19]  01 00 09 0E 1C 00 00 80 3F 00 00 00 00 11 00 1F 01 13 0D
  can0       100  [24]  21 00 09 2F 01 80 46 CA 40 80 B4 13 41 90 D5 89 3D 23 0D 48 1B 00 50 50
  can0  00008002  [35]  01 00 0A 0E 20 00 00 C0 7F 00 00 00 00 0E 23 00 00 00 00 00 00 80 3F 0D 27 00 00 C0 7F 11 00 1F 01 13 0D
  can0       200  [64]  21 00 0A 2F 01 80 E9 C8 C0 F0 3D 01 C1 5F A0 8B 3E 23 0D 46 1A 00 30 01 02 30 02 02 30 03 02 30 04 02 30 05 02 30 06 01 30 07 01 30 08 01 30 09 01 50 50 50 50 50 50 50 50 50 50 50 50 50 50 50
  can0  00008001  [19]  01 00 09 0E 1C 00 00 80 3F 00 00 00 00 11 00 1F 01 13 0D
  can0       100  [24]  21 00 09 2F 01 80 66 CC 40 A0 D6 C4 40 CF 0E 18 3D 23 0D 49 1B 00 50 50
  can0  00008002  [35]  01 00 0A 0E 20 00 00 C0 7F 00 00 00 00 0E 23 00 00 00 00 00 00 80 3F 0D 27 00 00 C0 7F 11 00 1F 01 13 0D
  can0       200  [64]  21 00 00 2F 01 80 4F CB C0 80 B4 13 C1 00 00 00 00 23 0D 48 1A 00 30 30 02 30 31 02 30 32 02 30 33 02 30 34 02 30 35 01 30 36 01 30 37 01 30 38 01 30 39 01 50 50 50 50 50 50 50 50 50 50 50 50
  can0  00008001  [19]  01 00 09 0E 1C 00 00 80 3F 00 00 00 00 11 00 1F 01 13 0D
  can0       100  [24]  21 00 09 2F 01 80 AD CF 40 40 FA 17 41 FD F2 39 3D 23 0D 48 1B 00 50 50
  can0  00008002  [35]  01 00 0A 0E 20 00 00 C0 7F 00 00 00 00 0E 23 00 00 00 00 00 00 80 3F 0D 27 00 00 C0 7F 11 00 1F 01 13 0D
  can0       200  [64]  21 00 0A 2F 01 00 C6 CE C0 00 EF 67 C0 F4 BE 71 3E 23 0D 46 1A 00 30 01 02 30 02 02 30 03 02 30 04 02 30 05 02 30 06 01 30 07 01 30 08 01 30 09 01 50 50 50 50 50 50 50 50 50 50 50 50 50 50 50
  can0  00008001  [19]  01 00 09 0E 1C 00 00 80 3F 00 00 00 00 11 00 1F 01 13 0D
  can0       100  [24]  21 00 09 2F 01 80 1C D2 40 20 C3 A8 40 2D 7F 20 3D 23 0D 46 1B 00 50 50
  can0  00008002  [35]  01 00 0A 0E 20 00 00 C0 7F 00 00 00 00 0E 23 00 00 00 00 00 00 80 3F 0D 27 00 00 C0 7F 11 00 1F 01 13 0D
  can0       200  [64]  21 00 00 2F 01 80 D2 D0 C0 C0 FF DF C0 00 00 00 00 23 0D 46 1A 00 30 30 02 30 31 02 30 32 02 30 33 02 30 34 02 30 35 01 30 36 01 30 37 01 30 38 01 30 39 01 50 50 50 50 50 50 50 50 50 50 50 50
  can0  00008001  [19]  01 00 09 0E 1C 00 00 80 3F 00 00 00 00 11 00 1F 01 13 0D
  can0       100  [24]  21 00 09 2F 01 00 DD D4 40 F0 1F 06 41 93 B6 37 3D 23 0D 48 1B 00 50 50
  can0  00008002  [35]  01 00 0A 0E 20 00 00 C0 7F 00 00 00 00 0E 23 00 00 00 00 00 00 80 3F 0D 27 00 00 C0 7F 11 00 1F 01 13 0D
  can0       200  [64]  21 00 0A 2F 01 00 76 D3 C0 40 31 F7 C0 9B C9 8E 3E 23 0D 48 1A 00 30 01 02 30 02 02 30 03 02 30 04 02 30 05 02 30 06 01 30 07 01 30 08 01 30 09 01 50 50 50 50 50 50 50 50 50 50 50 50 50 50 50
  can0  00008001  [19]  01 00 09 0E 1C 00 00 80 3F 00 00 00 00 11 00 1F 01 13 0D
  can0       100  [24]  21 00 09 2F 01 80 F7 D6 40 40 7B C1 40 62 CA 3B 3D 23 0D 48 1B 00 50 50
  can0  00008002  [35]  01 00 0A 0E 20 00 00 C0 7F 00 00 00 00 0E 23 00 00 00 00 00 00 80 3F 0D 27 00 00 C0 7F 11 00 1F 01 13 0D
  can0       200  [64]  21 00 00 2F 01 80 B3 D5 C0 10 FD 03 C1 00 00 00 00 23 0D 48 1A 00 30 30 02 30 31 02 30 32 02 30 33 02 30 34 02 30 35 01 30 36 01 30 37 01 30 38 01 30 39 01 50 50 50 50 50 50 50 50 50 50 50 50
  can0  00008001  [19]  01 00 09 0E 1C 00 00 80 3F 00 00 00 00 11 00 1F 01 13 0D
  can0       100  [24]  21 00 09 2F 01 00 66 DA 40 C0 BC FF 40 42 7B 30 3E 23 0D 48 1B 00 50 50
  can0  00008002  [35]  01 00 0A 0E 20 00 00 C0 7F 00 00 00 00 0E 23 00 00 00 00 00 00 80 3F 0D 27 00 00 C0 7F 11 00 1F 01 13 0D
  can0       200  [64]  21 00 0A 2F 01 00 E0 D8 C0 80 BD 50 C0 8E D6 85 3E 23 0D 46 1A 00 30 01 02 30 02 02 30 03 02 30 04 02 30 05 02 30 06 01 30 07 01 30 08 01 30 09 01 50 50 50 50 50 50 50 50 50 50 50 50 50 50 50
  can0  00008001  [19]  01 00 09 0E 1C 00 00 80 3F 00 00 00 00 11 00 1F 01 13 0D
  can0       100  [24]  21 00 09 2F 01 80 2D DC 40 00 40 9C 40 3B 6C 64 3D 23 0D 46 1B 00 50 50
  can0  00008002  [35]  01 00 0A 0E 20 00 00 C0 7F 00 00 00 00 0E 23 00 00 00 00 00 00 80 3F 0D 27 00 00 C0 7F 11 00 1F 01 13 0D
  can0       200  [64]  21 00 00 2F 01 00 F8 DA C0 80 27 E9 C0 00 00 00 00 23 0D 48 1A 00 30 30 02 30 31 02 30 32 02 30 33 02 30 34 02 30 35 01 30 36 01 30 37 01 30 38 01 30 39 01 50 50 50 50 50 50 50 50 50 50 50 50
  can0  00008001  [19]  01 00 09 0E 1C 00 00 80 3F 00 00 00 00 11 00 1F 01 13 0D
  can0       100  [24]  21 00 09 2F 01 80 BE DE 40 60 7F F7 40 C6 37 A6 3D 23 0D 48 1B 00 50 50
  can0  00008002  [35]  01 00 0A 0E 20 00 00 C0 7F 00 00 00 00 0E 23 00 00 00 00 00 00 80 3F 0D 27 00 00 C0 7F 11 00 1F 01 13 0D
  can0       200  [64]  21 00 0A 2F 01 80 77 DD C0 40 4F F2 C0 B7 0D 59 3E 23 0D 48 1A 00 30 01 02 30 02 02 30 03 02 30 04 02 30 05 02 30 06 01 30 07 01 30 08 01 30 09 01 50 50 50 50 50 50 50 50 50 50 50 50 50 50 50
  can0  00008001  [19]  01 00 09 0E 1C 00 00 80 3F 00 00 00 00 11 00 1F 01 13 0D
  can0       100  [24]  21 00 09 2F 01 00 C4 E1 40 40 FC EA 40 16 97 C7 3C 23 0D 46 1B 00 50 50
  can0  00008002  [35]  01 00 0A 0E 20 00 00 C0 7F 00 00 00 00 0E 23 00 00 00 00 00 00 80 3F 0D 27 00 00 C0 7F 11 00 1F 01 13 0D
  can0       200  [64]  21 00 00 2F 01 80 E9 E0 C0 D0 42 08 C1 00 00 00 00 23 0D 48 1A 00 30 30 02 30 31 02 30 32 02 30 33 02 30 34 02 30 35 01 30 36 01 30 37 01 30 38 01 30 39 01 50 50 50 50 50 50 50 50 50 50 50 50
  can0  00008001  [19]  01 00 09 0E 1C 00 00 80 3F 00 00 00 00 11 00 1F 01 13 0D
  can0       100  [24]  21 00 09 2F 01 80 F9 E4 40 50 EC 0B 41 57 20 6D 3D 23 0D 48 1B 00 50 50
  can0  00008002  [35]  01 00 0A 0E 20 00 00 C0 7F 00 00 00 00 0E 23 00 00 00 00 00 00 80 3F 0D 27 00 00 C0 7F 11 00 1F 01 13 0D
  can0       200  [64]  21 00 0A 2F 01 80 BE E3 C0 60 4F 02 C1 62 5B 86 3E 23 0D 48 1A 00 30 01 02 30 02 02 30 03 02 30 04 02 30 05 02 30 06 01 30 07 01 30 08 01 30 09 01 50 50 50 50 50 50 50 50 50 50 50 50 50 50 50
  can0  00008001  [19]  01 00 09 0E 1C 00 00 80 3F 00 00 00 00 11 00 1F 01 13 0D
  can0       100  [24]  21 00 09 2F 01 80 28 E7 40 00 C1 C5 40 50 F4 0F 3D 23 0D 48 1B 00 50 50
  can0  00008002  [35]  01 00 0A 0E 20 00 00 C0 7F 00 00 00 00 0E 23 00 00 00 00 00 00 80 3F 0D 27 00 00 C0 7F 11 00 1F 01 13 0D
  can0       200  [64]  21 00 00 2F 01 00 2A E6 C0 D0 24 0D C1 00 00 00 00 23 0D 46 1A 00 30 30 02 30 31 02 30 32 02 30 33 02 30 34 02 30 35 01 30 36 01 30 37 01 30 38 01 30 39 01 50 50 50 50 50 50 50 50 50 50 50 50
  can0  00008001  [19]  01 00 09 0E 1C 00 00 80 3F 00 00 00 00 11 00 1F 01 13 0D
  can0       100  [24]  21 00 09 2F 01 80 4E EA 40 50 EC 0B 41 9A EB 92 3D 23 0D 48 1B 00 50 50
  can0  00008002  [35]  01 00 0A 0E 20 00 00 C0 7F 00 00 00 00 0E 23 00 00 00 00 00 00 80 3F 0D 27 00 00 C0 7F 11 00 1F 01 13 0D
  can0       200  [64]  21 00 0A 2F 01 00 F1 E8 C0 20 CC E5 C0 9B DA 3C 3E 23 0D 48 1A 00 30 01 02 30 02 02 30 03 02 30 04 02 30 05 02 30 06 01 30 07 01 30 08 01 30 09 01 50 50 50 50 50 50 50 50 50 50 50 50 50 50 50
  can0  00008001  [19]  01 00 09 0E 1C 00 00 80 3F 00 00 00 00 11 00 1F 01 13 0D
  can0       100  [24]  21 00 09 2F 01 80 6F EC 40 20 9E C3 40 BE 83 01 3D 23 0D 46 1B 00 50 50
  can0  00008002  [35]  01 00 0A 0E 20 00 00 C0 7F 00 00 00 00 0E 23 00 00 00 00 00 00 80 3F 0D 27 00 00 C0 7F 11 00 1F 01 13 0D
  can0       200  [64]  21 00 00 2F 01 00 70 EB C0 50 B0 15 C1 00 00 00 00 23 0D 48 1A 00 30 30 02 30 31 02 30 32 02 30 33 02 30 34 02 30 35 01 30 36 01 30 37 01 30 38 01 30 39 01 50 50 50 50 50 50 50 50 50 50 50 50
  can0  00008001  [19]  01 00 09 0E 1C 00 00 80 3F 00 00 00 00 11 00 1F 01 13 0D
  can0       100  [24]  21 00 09 2F 01 80 76 EF 40 70 8D 13 41 6F 0A 5C 3D 23 0D 48 1B 00 50 50
  can0  00008002  [35]  01 00 0A 0E 20 00 00 C0 7F 00 00 00 00 0E 23 00 00 00 00 00 00 80 3F 0D 27 00 00 C0 7F 11 00 1F 01 13 0D
  can0       200  [64]  21 00 0A 2F 01 00 17 EE C0 00 06 F9 C0 77 8C 7A 3E 23 0D 46 1B 00 30 01 02 30 02 02 30 03 02 30 04 02 30 05 02 30 06 01 30 07 01 30 08 01 30 09 01 50 50 50 50 50 50 50 50 50 50 50 50 50 50 50
  can0  00008001  [19]  01 00 09 0E 1C 00 00 80 3F 00 00 00 00 11 00 1F 01 13 0D
  can0       100  [24]  21 00 09 2F 01 80 8D F1 40 40 0A BF 40 6C E4 52 3D 23 0D 48 1B 00 50 50
  can0  00008002  [35]  01 00 0A 0E 20 00 00 C0 7F 00 00 00 00 0E 23 00 00 00 00 00 00 80 3F 0D 27 00 00 C0 7F 11 00 1F 01 13 0D
  can0       200  [64]  21 00 00 2F 01 00 74 F0 C0 70 1C 11 C1 00 00 00 00 23 0D 46 1A 00 30 30 02 30 31 02 30 32 02 30 33 02 30 34 02 30 35 01 30 36 01 30 37 01 30 38 01 30 39 01 50 50 50 50 50 50 50 50 50 50 50 50
  can0  00008001  [19]  01 00 09 0E 1C 00 00 80 3F 00 00 00 00 11 00 1F 01 13 0D
  can0       100  [24]  21 00 09 2F 01 80 96 F4 40 40 18 13 41 FB BF 50 3D 23 0D 48 1B 00 50 50
  can0  00008002  [35]  01 00 0A 0E 20 00 00 C0 7F 00 00 00 00 0E 23 00 00 00 00 00 00 80 3F 0D 27 00 00 C0 7F 11 00 1F 01 13 0D
  can0       200  [64]  21 00 0A 2F 01 80 2B F3 C0 40 A2 F9 C0 D4 A5 7B 3E 23 0D 48 1A 00 30 01 02 30 02 02 30 03 02 30 04 02 30 05 02 30 06 01 30 07 01 30 08 01 30 09 01 50 50 50 50 50 50 50 50 50 50 50 50 50 50 50
  can0  00008001  [19]  01 00 09 0E 1C 00 00 80 3F 00 00 00 00 11 00 1F 01 13 0D
  can0       100  [24]  21 00 09 2F 01 80 BC F6 40 00 C1 C5 40 14 02 7B 3D 23 0D 48 1B 00 50 50
  can0  00008002  [35]  01 00 0A 0E 20 00 00 C0 7F 00 00 00 00 0E 23 00 00 00 00 00 00 80 3F 0D 27 00 00 C0 7F 11 00 1F 01 13 0D
  can0       200  [64]  21 00 00 2F 01 00 B3 F5 C0 60 D7 15 C1 00 00 00 00 23 0D 48 1A 00 30 30 02 30 31 02 30 32 02 30 33 02 30 34 02 30 35 01 30 36 01 30 37 01 30 38 01 30 39 01 50 50 50 50 50 50 50 50 50 50 50 50
  can0  00008001  [19]  01 00 09 0E 1C 00 00 80 3F 00 00 00 00 11 00 1F 01 13 0D
  can0       100  [24]  21 00 09 2F 01 00 0B FA 40 60 66 13 41 33 44 71 3D 23 0D 46 1B 00 50 50
  can0  00008002  [35]  01 00 0A 0E 20 00 00 C0 7F 00 00 00 00 0E 23 00 00 00 00 00 00 80 3F 0D 27 00 00 C0 7F 11 00 1F 01 13 0D
  can0       200  [64]  21 00 0A 2F 01 00 7A F8 C0 E0 4D E0 C0 F7 C9 7D 3E 23 0D 48 1A 00 30 01 02 30 02 02 30 03 02 30 04 02 30 05 02 30 06 01 30 07 01 30 08 01 30 09 01 50 50 50 50 50 50 50 50 50 50 50 50 50 50 50
  can0  00008001  [19]  01 00 09 0E 1C 00 00 80 3F 00 00 00 00 11 00 1F 01 13 0D
  can0       100  [24]  21 00 09 2F 01 00 38 FC 40 C0 24 C5 40 8C 2C 5C 3D 23 0D 46 1B 00 50 50
  can0  00008002  [35]  01 00 0A 0E 20 00 00 C0 7F 00 00 00 00 0E 23 00 00 00 00 00 00 80 3F 0D 27 00 00 C0 7F 11 00 1F 01 13 0D
  can0       200  [64]  21 00 00 2F 01 00 25 FB C0 80 25 16 C1 00 00 00 00 23 0D 48 1A 00 30 30 02 30 31 02 30 32 02 30 33 02 30 34 02 30 35 01 30 36 01 30 37 01 30 38 01 30 39 01 50 50 50 50 50 50 50 50 50 50 50 50
  can0  00008001  [19]  01 00 09 0E 1C 00 00 80 3F 00 00 00 00 11 00 1F 01 13 0D
  can0       100  [24]  21 00 09 2F 01 80 74 FF 40 F0 E3 0F 41 83 8F 90 3D 23 0D 46 1B 00 50 50
  can0  00008002  [35]  01 00 0A 0E 20 00 00 C0 7F 00 00 00 00 0E 23 00 00 00 00 00 00 80 3F 0D 27 00 00 C0 7F 11 00 1F 01 13 0D
  can0       200  [64]  21 00 0A 2F 01 00 E1 FD C0 C0 16 F1 C0 DB 39 86 3E 23 0D 46 1A 00 30 01 02 30 02 02 30 03 02 30 04 02 30 05 02 30 06 01 30 07 01 30 08 01 30 09 01 50 50 50 50 50 50 50 50 50 50 50 50 50 50 50
  can0  00008001  [19]  01 00 09 0E 1C 00 00 80 3F 00 00 00 00 11 00 1F 01 13 0D
  can0       100  [24]  21 00 09 2F 01 80 BE 00 41 60 AB C6 40 6B 3D 08 3D 23 0D 46 1B 00 50 50
  can0  00008002  [35]  01 00 0A 0E 20 00 00 C0 7F 00 00 00 00 0E 23 00 00 00 00 00 00 80 3F 0D 27 00 00 C0 7F 11 00 1F 01 13 0D
  can0       200  [64]  21 00 00 2F 01 00 2B 00 C1 10 A3 12 C1 00 00 00 00 23 0D 46 1A 00 30 30 02 30 31 02 30 32 02 30 33 02 30 34 02 30 35 01 30 36 01 30 37 01 30 38 01 30 39 01 50 50 50 50 50 50 50 50 50 50 50 50
  can0  00008001  [19]  01 00 09 0E 1C 00 00 80 3F 00 00 00 00 11 00 1F 01 13 0D
  can0       100  [24]  21 00 09 2F 01 80 46 02 41 10 14 15 41 29 2B 62 3D 23 0D 48 1B 00 50 50
  can0  00008002  [35]  01 00 0A 0E 20 00 00 C0 7F 00 00 00 00 0E 23 00 00 00 00 00 00 80 3F 0D 27 00 00 C0 7F 11 00 1F 01 13 0D
  can0       200  [64]  21 00 0A 2F 01 40 8D 01 C1 E0 87 03 C1 43 8A 8F 3E 23 0D 46 1A 00 30 01 02 30 02 02 30 03 02 30 04 02 30 05 02 30 06 01 30 07 01 30 08 01 30 09 01 50 50 50 50 50 50 50 50 50 50 50 50 50 50 50
  can0  00008001  [19]  01 00 09 0E 1C 00 00 80 3F 00 00 00 00 11 00 1F 01 13 0D
  can0       100  [24]  21 00 09 2F 01 00 78 03 41 80 F2 DC 40 60 1E F0 3C 23 0D 46 1B 00 50 50
  can0  00008002  [35]  01 00 0A 0E 20 00 00 C0 7F 00 00 00 00 0E 23 00 00 00 00 00 00 80 3F 0D 27 00 00 C0 7F 11 00 1F 01 13 0D
  can0       200  [64]  21 00 00 2F 01 00 E3 02 C1 60 D7 15 C1 00 00 00 00 23 0D 48 1B 00 30 30 02 30 31 02 30 32 02 30 33 02 30 34 02 30 35 01 30 36 01 30 37 01 30 38 01 30 39 01 50 50 50 50 50 50 50 50 50 50 50 50
  can0  00008001  [19]  01 00 09 0E 1C 00 00 80 3F 00 00 00 00 11 00 1F 01 13 0D
  can0       100  [24]  21 00 09 2F 01 80 7C 05 41 40 74 D7 40 55 D8 A1 3E 23 0D 48 1B 00 50 50
  can0  00008002  [35]  01 00 0A 0E 20 00 00 C0 7F 00 00 00 00 0E 23 00 00 00 00 00 00 80 3F 0D 27 00 00 C0 7F 11 00 1F 01 13 0D
  can0       200  [64]  21 00 0A 2F 01 C0 92 04 C1 80 3E 7A C0 9E 2B 77 3E 23 0D 46 1B 00 30 01 02 30 02 02 30 03 02 30 04 02 30 05 02 30 06 01 30 07 01 30 08 01 30 09 01 50 50 50 50 50 50 50 50 50 50 50 50 50 50 50
  can0  00008001  [19]  01 00 09 0E 1C 00 00 80 3F 00 00 00 00 11 00 1F 01 13 0D
  can0       100  [24]  21 00 09 2F 01 C0 41 06 41 40 2F A4 40 7D 91 24 3D 23 0D 46 1B 00 50 50
  can0  00008002  [35]  01 00 0A 0E 20 00 00 C0 7F 00 00 00 00 0E 23 00 00 00 00 00 00 80 3F 0D 27 00 00 C0 7F 11 00 1F 01 13 0D
  can0       200  [64]  21 00 00 2F 01 40 95 05 C1 A0 93 E4 C0 00 00 00 00 23 0D 46 1A 00 30 30 02 30 31 02 30 32 02 30 33 02 30 34 02 30 35 01 30 36 01 30 37 01 30 38 01 30 39 01 50 50 50 50 50 50 50 50 50 50 50 50
  can0  00008001  [19]  01 00 09 0E 1C 00 00 80 3F 00 00 00 00 11 00 1F 01 13 0D
  can0       100  [24]  21 00 09 2F 01 80 A1 07 41 30 BC 06 41 55 A8 0A 3D 23 0D 46 1B 00 50 50
  can0  00008002  [35]  01 00 0A 0E 20 00 00 C0 7F 00 00 00 00 0E 23 00 00 00 00 00 00 80 3F 0D 27 00 00 C0 7F 11 00 1F 01 13 0D
  can0       200  [64]  21 00 0A 2F 01 C0 EF 06 C1 C0 C8 00 C1 9F 35 8C 3E 23 0D 46 1B 00 30 01 02 30 02 02 30 03 02 30 04 02 30 05 02 30 06 01 30 07 01 30 08 01 30 09 01 50 50 50 50 50 50 50 50 50 50 50 50 50 50 50
  can0  00008001  [19]  01 00 09 0E 1C 00 00 80 3F 00 00 00 00 11 00 1F 01 13 0D
  can0       100  [24]  21 00 09 2F 01 00 B9 08 41 A0 D6 C4 40 08 9B 8D 3D 23 0D 46 1B 00 50 50
  can0  00008002  [35]  01 00 0A 0E 20 00 00 C0 7F 00 00 00 00 0E 23 00 00 00 00 00 00 80 3F 0D 27 00 00 C0 7F 11 00 1F 01 13 0D
  can0       200  [64]  21 00 00 2F 01 40 1A 08 C1 E0 F8 05 C1 00 00 00 00 23 0D 48 1A 00 30 30 02 30 31 02 30 32 02 30 33 02 30 34 02 30 35 01 30 36 01 30 37 01 30 38 01 30 39 01 50 50 50 50 50 50 50 50 50 50 50 50
  can0  00008001  [19]  01 00 09 0E 1C 00 00 80 3F 00 00 00 00 11 00 1F 01 13 0D
  can0       100  [24]  21 00 09 2F 01 40 59 0A 41 90 88 0C 41 BC 43 CB 3C 23 0D 48 1B 00 50 50
  can0  00008002  [35]  01 00 0A 0E 20 00 00 C0 7F 00 00 00 00 0E 23 00 00 00 00 00 00 80 3F 0D 27 00 00 C0 7F 11 00 1F 01 13 0D
  can0       200  [64]  21 00 0A 2F 01 40 7A 09 C1 40 03 D5 C0 EA FD 4A 3E 23 0D 48 1B 00 30 01 02 30 02 02 30 03 02 30 04 02 30 05 02 30 06 01 30 07 01 30 08 01 30 09 01 50 50 50 50 50 50 50 50 50 50 50 50 50 50 50
  can0  00008001  [19]  01 00 09 0E 1C 00 00 80 3F 00 00 00 00 11 00 1F 01 13 0D
  can0       100  [24]  21 00 09 2F 01 40 49 0B 41 40 B7 B7 40 FA 4F 9F 3D 23 0D 48 1B 00 50 50
  can0  00008002  [35]  01 00 0A 0E 20 00 00 C0 7F 00 00 00 00 0E 23 00 00 00 00 00 00 80 3F 0D 27 00 00 C0 7F 11 00 1F 01 13 0D
  can0       200  [64]  21 00 00 2F 01 40 84 0B C1 E0 F3 EE C0 00 00 00 00 23 0D 48 1B 00 30 30 02 30 31 02 30 32 02 30 33 02 30 34 02 30 35 01 30 36 01 30 37 01 30 38 01 30 39 01 50 50 50 50 50 50 50 50 50 50 50 50
  can0  00008001  [19]  01 00 09 0E 1C 00 00 80 3F 00 00 00 00 11 00 1F 01 13 0D
  can0       100  [24]  21 00 09 2F 01 80 B2 0D 41 60 13 0C 41 5D B4 8A 3D 23 0D 46 1B 00 50 50
  can0  00008002  [35]  01 00 0A 0E 20 00 00 C0 7F 00 00 00 00 0E 23 00 00 00 00 00 00 80 3F 0D 27 00 00 C0 7F 11 00 1F 01 13 0D
  can0       200  [64]  21 00 0A 2F 01 40 FB 0C C1 00 D6 03 C1 86 78 90 3E 23 0D 46 1A 00 30 01 02 30 02 02 30 03 02 30 04 02 30 05 02 30 06 01 30 07 01 30 08 01 30 09 01 50 50 50 50 50 50 50 50 50 50 50 50 50 50 50
  can0  00008001  [19]  01 00 09 0E 1C 00 00 80 3F 00 00 00 00 11 00 1F 01 13 0D
  can0       100  [24]  21 00 09 2F 01 C0 C5 0E 41 20 0F C6 40 87 46 13 3D 23 0D 46 1B 00 50 50
  can0  00008002  [35]  01 00 0A 0E 20 00 00 C0 7F 00 00 00 00 0E 23 00 00 00 00 00 00 80 3F 0D 27 00 00 C0 7F 11 00 1F 01 13 0D
  can0       200  [64]  21 00 00 2F 01 00 2B 0E C1 10 C1 0D C1 00 00 00 00 23 0D 48 1A 00 30 30 02 30 31 02 30 32 02 30 33 02 30 34 02 30 35 01 30 36 01 30 37 01 30 38 01 30 39 01 50 50 50 50 50 50 50 50 50 50 50 50
  can0  00008001  [19]  01 00 09 0E 1C 00 00 80 3F 00 00 00 00 11 00 1F 01 13 0D
  can0       100  [24]  21 00 09 2F 01 80 66 10 41 70 1C 11 41 77 9A 12 3D 23 0D 46 1B 00 50 50
  can0  00008002  [35]  01 00 0A 0E 20 00 00 C0 7F 00 00 00 00 0E 23 00 00 00 00 00 00 80 3F 0D 27 00 00 C0 7F 11 00 1F 01 13 0D
  can0       200  [64]  21 00 0A 2F 01 C0 A3 0F C1 A0 E6 EB C0 43 C7 67 3E 23 0D 48 1B 00 30 01 02 30 02 02 30 03 02 30 04 02 30 05 02 30 06 01 30 07 01 30 08 01 30 09 01 50 50 50 50 50 50 50 50 50 50 50 50 50 50 50
  can0  00008001  [19]  01 00 09 0E 1C 00 00 80 3F 00 00 00 00 11 00 1F 01 13 0D
  can0       100  [24]  21 00 09 2F 01 C0 87 11 41 40 92 D2 40 7A F3 E3 3B 23 0D 48 1B 00 50 50
  can0  00008002  [35]  01 00 0A 0E 20 00 00 C0 7F 00 00 00 00 0E 23 00 00 00 00 00 00 80 3F 0D 27 00 00 C0 7F 11 00 1F 01 13 0D
  can0       200  [64]  21 00 00 2F 01 40 F0 10 C1 F0 E3 0F C1 00 00 00 00 23 0D 48 1A 00 30 30 02 30 31 02 30 32 02 30 33 02 30 34 02 30 35 01 30 36 01 30 37 01 30 38 01 30 39 01 50 50 50 50 50 50 50 50 50 50 50 50
  can0  00008001  [19]  01 00 09 0E 1C 00 00 80 3F 00 00 00 00 11 00 1F 01 13 0D
  can0       100  [24]  21 00 09 2F 01 00 16 13 41 20 CA 12 41 51 DE 44 3D 23 0D 48 1B 00 50 50
  can0  00008002  [35]  01 00 0A 0E 20 00 00 C0 7F 00 00 00 00 0E 23 00 00 00 00 00 00 80 3F 0D 27 00 00 C0 7F 11 00 1F 01 13 0D
  can0       200  [64]  21 00 0A 2F 01 80 5A 12 C1 30 DA 01 C1 5E 77 8F 3E 23 0D 46 1A 00 30 01 02 30 02 02 30 03 02 30 04 02 30 05 02 30 06 01 30 07 01 30 08 01 30 09 01 50 50 50 50 50 50 50 50 50 50 50 50 50 50 50
  can0  00008001  [19]  01 00 09 0E 1C 00 00 80 3F 00 00 00 00 11 00 1F 01 13 0D
  can0       100  [24]  21 00 09 2F 01 40 20 14 41 60 AB C6 40 B7 07 D6 3C 23 0D 48 1B 00 50 50
  can0  00008002  [35]  01 00 0A 0E 20 00 00 C0 7F 00 00 00 00 0E 23 00 00 00 00 00 00 80 3F 0D 27 00 00 C0 7F 11 00 1F 01 13 0D
  can0       200  [64]  21 00 00 2F 01 40 78 13 C1 F0 90 08 C1 00 00 00 00 23 0D 46 1A 00 30 30 02 30 31 02 30 32 02 30 33 02 30 34 02 30 35 01 30 36 01 30 37 01 30 38 01 30 39 01 50 50 50 50 50 50 50 50 50 50 50 50
  can0  00008001  [19]  01 00 09 0E 1C 00 00 80 3F 00 00 00 00 11 00 1F 01 13 0D
  can0       100  [24]  21 00 09 2F 01 C0 A4 15 41 D0 06 12 41 AB 13 4C 3D 23 0D 48 1B 00 50 50
  can0  00008002  [35]  01 00 0A 0E 20 00 00 C0 7F 00 00 00 00 0E 23 00 00 00 00 00 00 80 3F 0D 27 00 00 C0 7F 11 00 1F 01 13 0D
  can0       200  [64]  21 00 0A 2F 01 40 E5 14 C1 60 BB ED C0 20 3C 65 3E 23 0D 48 1A 00 30 01 02 30 02 02 30 03 02 30 04 02 30 05 02 30 06 01 30 07 01 30 08 01 30 09 01 50 50 50 50 50 50 50 50 50 50 50 50 50 50 50
  can0  00008001  [19]  01 00 09 0E 1C 00 00 80 3F 00 00 00 00 11 00 1F 01 13 0D
  can0       100  [24]  21 00 09 2F 01 00 CE 16 41 C0 AC D8 40 1E 67 2B 3D 23 0D 48 1B 00 50 50
  can0  00008002  [35]  01 00 0A 0E 20 00 00 C0 7F 00 00 00 00 0E 23 00 00 00 00 00 00 80 3F 0D 27 00 00 C0 7F 11 00 1F 01 13 0D
  can0       200  [64]  21 00 00 2F 01 C0 46 16 C1 40 18 13 C1 00 00 00 00 23 0D 46 1B 00 30 30 02 30 31 02 30 32 02 30 33 02 30 34 02 30 35 01 30 36 01 30 37 01 30 38 01 30 39 01 50 50 50 50 50 50 50 50 50 50 50 50
  can0  00008001  [19]  01 00 09 0E 1C 00 00 80 3F 00 00 00 00 11 00 1F 01 13 0D
  can0       100  [24]  21 00 09 2F 01 40 BA 18 41 10 14 15 41 FE FB EF 3D 23 0D 46 1B 00 50 50
  can0  00008002  [35]  01 00 0A 0E 20 00 00 C0 7F 00 00 00 00 0E 23 00 00 00 00 00 00 80 3F 0D 27 00 00 C0 7F 11 00 1F 01 13 0D
  can0       200  [64]  21 00 0A 2F 01 40 CB 17 C1 E0 C5 CC C0 5A F2 90 3E 23 0D 48 1B 00 30 01 02 30 02 02 30 03 02 30 04 02 30 05 02 30 06 01 30 07 01 30 08 01 30 09 01 50 50 50 50 50 50 50 50 50 50 50 50 50 50 50
  can0  00008001  [19]  01 00 09 0E 1C 00 00 80 3F 00 00 00 00 11 00 1F 01 13 0D
  can0       100  [24]  21 00 09 2F 01 C0 66 1A 41 80 7F 07 41 9D 8C 73 3D 23 0D 48 1B 00 50 50
  can0  00008002  [35]  01 00 0A 0E 20 00 00 C0 7F 00 00 00 00 0E 23 00 00 00 00 00 00 80 3F 0D 27 00 00 C0 7F 11 00 1F 01 13 0D
  can0       200  [64]  21 00 00 2F 01 40 C8 19 C1 20 24 04 C1 00 00 00 00 23 0D 46 1B 00 30 30 02 30 31 02 30 32 02 30 33 02 30 34 02 30 35 01 30 36 01 30 37 01 30 38 01 30 39 01 50 50 50 50 50 50 50 50 50 50 50 50
  can0  00008001  [19]  01 00 09 0E 1C 00 00 80 3F 00 00 00 00 11 00 1F 01 13 0D
  can0       100  [24]  21 00 09 2F 01 C0 E2 1C 41 00 AA 34 40 F8 AD 6A 3E 23 0D 49 1B 00 50 50
  can0  00008002  [35]  01 00 0A 0E 20 00 00 C0 7F 00 00 00 00 0E 23 00 00 00 00 00 00 80 3F 0D 27 00 00 C0 7F 11 00 1F 01 13 0D
  can0       200  [64]  21 00 0A 2F 01 00 EF 1B C1 80 E2 35 C0 49 25 2A 3E 23 0D 46 1A 00 30 01 02 30 02 02 30 03 02 30 04 02 30 05 02 30 06 01 30 07 01 30 08 01 30 09 01 50 50 50 50 50 50 50 50 50 50 50 50 50 50 50
  can0  00008001  [19]  01 00 09 0E 1C 00 00 80 3F 00 00 00 00 11 00 1F 01 13 0D
  can0       100  [24]  21 00 09 2F 01 00 8D 1D 41 40 A7 90 40 B8 48 6D 3D 23 0D 48 1B 00 50 50
  can0  00008002  [35]  01 00 0A 0E 20 00 00 C0 7F 00 00 00 00 0E 23 00 00 00 00 00 00 80 3F 0D 27 00 00 C0 7F 11 00 1F 01 13 0D
  can0       200  [64]  21 00 00 2F 01 00 DC 1C C1 60 33 DA C0 00 00 00 00 23 0D 46 1A 00 30 30 02 30 31 02 30 32 02 30 33 02 30 34 02 30 35 01 30 36 01 30 37 01 30 38 01 30 39 01 50 50 50 50 50 50 50 50 50 50 50 50
  can0  00008001  [19]  01 00 09 0E 1C 00 00 80 3F 00 00 00 00 11 00 1F 01 13 0D
  can0       100  [24]  21 00 09 2F 01 C0 B9 1E 41 60 4A EB 40 C1 88 3A 3D 23 0D 48 1B 00 50 50
  can0  00008002  [35]  01 00 0A 0E 20 00 00 C0 7F 00 00 00 00 0E 23 00 00 00 00 00 00 80 3F 0D 27 00 00 C0 7F 11 00 1F 01 13 0D
  can0       200  [64]  21 00 0A 2F 01 40 F3 1D C1 A0 29 CC C0 50 65 5B 3E 23 0D 48 1A 00 30 01 02 30 02 02 30 03 02 30 04 02 30 05 02 30 06 01 30 07 01 30 08 01 30 09 01 50 50 50 50 50 50 50 50 50 50 50 50 50 50 50
  can0  00008001  [19]  01 00 09 0E 1C 00 00 80 3F 00 00 00 00 11 00 1F 01 13 0D
  can0       100  [24]  21 00 09 2F 01 40 8C 1F 41 A0 C6 9D 40 54 5F 51 3D 23 0D 48 1C 00 50 50
  can0  00008002  [35]  01 00 0A 0E 20 00 00 C0 7F 00 00 00 00 0E 23 00 00 00 00 00 00 80 3F 0D 27 00 00 C0 7F 11 00 1F 01 13 0D
  can0       200  [64]  21 00 00 2F 01 40 E9 1E C1 00 D1 EC C0 00 00 00 00 23 0D 48 1A 00 30 30 02 30 31 02 30 32 02 30 33 02 30 34 02 30 35 01 30 36 01 30 37 01 30 38 01 30 39 01 50 50 50 50 50 50 50 50 50 50 50 50
  can0  00008001  [19]  01 00 09 0E 1C 00 00 80 3F 00 00 00 00 11 00 1F 01 13 0D
  can0       100  [24]  21 00 09 2F 01 C0 CF 20 41 20 54 F9 40 92 47 26 3D 23 0D 46 1B 00 50 50
  can0  00008002  [35]  01 00 0A 0E 20 00 00 C0 7F 00 00 00 00 0E 23 00 00 00 00 00 00 80 3F 0D 27 00 00 C0 7F 11 00 1F 01 13 0D
  can0       200  [64]  21 00 0A 2F 01 40 18 20 C1 40 1A E6 C0 E4 BD 3B 3E 23 0D 48 1A 00 30 01 02 30 02 02 30 03 02 30 04 02 30 05 02 30 06 01 30 07 01 30 08 01 30 09 01 50 50 50 50 50 50 50 50 50 50 50 50 50 50 50
  can0  00008001  [19]  01 00 09 0E 1C 00 00 80 3F 00 00 00 00 11 00 1F 01 13 0D
  can0       100  [24]  21 00 09 2F 01 00 CD 21 41 C0 EF B8 40 B8 3E A7 3D 23 0D 48 1B 00 50 50
  can0  00008002  [35]  01 00 0A 0E 20 00 00 C0 7F 00 00 00 00 0E 23 00 00 00 00 00 00 80 3F 0D 27 00 00 C0 7F 11 00 1F 01 13 0D
  can0       200  [64]  21 00 00 2F 01 C0 4A 21 C1 70 AB 0E C1 00 00 00 00 23 0D 48 1A 00 30 30 02 30 31 02 30 32 02 30 33 02 30 34 02 30 35 01 30 36 01 30 37 01 30 38 01 30 39 01 50 50 50 50 50 50 50 50 50 50 50 50
  can0  00008001  [19]  01 00 09 0E 1C 00 00 80 3F 00 00 00 00 11 00 1F 01 13 0D
  can0       100  [24]  21 00 09 2F 01 00 55 23 41 D0 B3 0A 41 7B BE 65 3D 23 0D 48 1B 00 50 50
  can0  00008002  [35]  01 00 0A 0E 20 00 00 C0 7F 00 00 00 00 0E 23 00 00 00 00 00 00 80 3F 0D 27 00 00 C0 7F 11 00 1F 01 13 0D
  can0       200  [64]  21 00 0A 2F 01 40 9D 22 C1 40 E5 D9 C0 33 23 38 3E 23 0D 48 1A 00 30 01 02 30 02 02 30 03 02 30 04 02 30 05 02 30 06 01 30 07 01 30 08 01 30 09 01 50 50 50 50 50 50 50 50 50 50 50 50 50 50 50
  can0  00008001  [19]  01 00 09 0E 1C 00 00 80 3F 00 00 00 00 11 00 1F 01 13 0D
  can0       100  [24]  21 00 09 2F 01 80 4A 24 41 A0 BF B3 40 E7 A1 58 3D 23 0D 46 1C 00 50 50
  can0  00008002  [35]  01 00 0A 0E 20 00 00 C0 7F 00 00 00 00 0E 23 00 00 00 00 00 00 80 3F 0D 27 00 00 C0 7F 11 00 1F 01 13 0D
  can0       200  [64]  21 00 00 2F 01 40 B9 23 C1 C0 1B 08 C1 00 00 00 00 23 0D 46 1A 00 30 30 02 30 31 02 30 32 02 30 33 02 30 34 02 30 35 01 30 36 01 30 37 01 30 38 01 30 39 01 50 50 50 50 50 50 50 50 50 50 50 50
  can0  00008001  [19]  01 00 09 0E 1C 00 00 80 3F 00 00 00 00 11 00 1F 01 13 0D
  can0       100  [24]  21 00 09 2F 01 80 B3 25 41 40 C5 0B 41 A7 71 38 3D 23 0D 48 1B 00 50 50
  can0  00008002  [35]  01 00 0A 0E 20 00 00 C0 7F 00 00 00 00 0E 23 00 00 00 00 00 00 80 3F 0D 27 00 00 C0 7F 11 00 1F 01 13 0D
  can0       200  [64]  21 00 0A 2F 01 00 00 25 C1 C0 52 E7 C0 EB AE 74 3E 23 0D 48 1A 00 30 01 02 30 02 02 30 03 02 30 04 02 30 05 02 30 06 01 30 07 01 30 08 01 30 09 01 50 50 50 50 50 50 50 50 50 50 50 50 50 50 50
  can0  00008001  [19]  01 00 09 0E 1C 00 00 80 3F 00 00 00 00 11 00 1F 01 13 0D
  can0       100  [24]  21 00 09 2F 01 40 BC 26 41 60 C9 C1 40 79 05 3C 3D 23 0D 48 1B 00 50 50
  can0  00008002  [35]  01 00 0A 0E 20 00 00 C0 7F 00 00 00 00 0E 23 00 00 00 00 00 00 80 3F 0D 27 00 00 C0 7F 11 00 1F 01 13 0D
  can0       200  [64]  21 00 00 2F 01 00 2D 26 C1 B0 B8 11 C1 00 00 00 00 23 0D 46 1A 00 30 30 02 30 31 02 30 32 02 30 33 02 30 34 02 30 35 01 30 36 01 30 37 01 30 38 01 30 39 01 50 50 50 50 50 50 50 50 50 50 50 50
  can0  00008001  [19]  01 00 09 0E 1C 00 00 80 3F 00 00 00 00 11 00 1F 01 13 0D
  can0       100  [24]  21 00 09 2F 01 40 4C 28 41 90 BD 18 41 E5 EB 7C 3D 23 0D 46 1B 00 50 50
  can0  00008002  [35]  01 00 0A 0E 20 00 00 C0 7F 00 00 00 00 0E 23 00 00 00 00 00 00 80 3F 0D 27 00 00 C0 7F 11 00 1F 01 13 0D
  can0       200  [64]  21 00 0A 2F 01 80 86 27 C1 60 51 D5 C0 D1 62 5A 3E 23 0D 46 1A 00 30 01 02 30 02 02 30 03 02 30 04 02 30 05 02 30 06 01 30 07 01 30 08 01 30 09 01 50 50 50 50 50 50 50 50 50 50 50 50 50 50 50
  can0  00008001  [19]  01 00 09 0E 1C 00 00 80 3F 00 00 00 00 11 00 1F 01 13 0D
  can0       100  [24]  21 00 09 2F 01 00 5D 29 41 60 1C C9 40 A2 15 21 3D 23 0D 46 1B 00 50 50
  can0  00008002  [35]  01 00 0A 0E 20 00 00 C0 7F 00 00 00 00 0E 23 00 00 00 00 00 00 80 3F 0D 27 00 00 C0 7F 11 00 1F 01 13 0D
  can0       200  [64]  21 00 00 2F 01 C0 DC 28 C1 00 7C 12 C1 00 00 00 00 23 0D 48 1A 00 30 30 02 30 31 02 30 32 02 30 33 02 30 34 02 30 35 01 30 36 01 30 37 01 30 38 01 30 39 01 50 50 50 50 50 50 50 50 50 50 50 50
  can0  00008001  [19]  01 00 09 0E 1C 00 00 80 3F 00 00 00 00 11 00 1F 01 13 0D
  can0       100  [24]  21 00 09 2F 01 C0 03 2B 41 80 B4 13 41 7A 17 96 3D 23 0D 48 1B 00 50 50
  can0  00008002  [35]  01 00 0A 0E 20 00 00 C0 7F 00 00 00 00 0E 23 00 00 00 00 00 00 80 3F 0D 27 00 00 C0 7F 11 00 1F 01 13 0D
  can0       200  [64]  21 00 0A 2F 01 80 3B 2A C1 80 7A F0 C0 47 79 82 3E 23 0D 48 1B 00 30 01 02 30 02 02 30 03 02 30 04 02 30 05 02 30 06 01 30 07 01 30 08 01 30 09 01 50 50 50 50 50 50 50 50 50 50 50 50 50 50 50
  can0  00008001  [19]  01 00 09 0E 1C 00 00 80 3F 00 00 00 00 11 00 1F 01 13 0D
  can0       100  [24]  21 00 09 2F 01 00 FA 2B 41 60 05 B8 40 EC F9 0F 3D 23 0D 46 1B 00 50 50
  can0  00008002  [35]  01 00 0A 0E 20 00 00 C0 7F 00 00 00 00 0E 23 00 00 00 00 00 00 80 3F 0D 27 00 00 C0 7F 11 00 1F 01 13 0D
  can0       200  [64]  21 00 00 2F 01 40 56 2B C1 A0 5C 05 C1 00 00 00 00 23 0D 46 1A 00 30 30 02 30 31 02 30 32 02 30 33 02 30 34 02 30 35 01 30 36 01 30 37 01 30 38 01 30 39 01 50 50 50 50 50 50 50 50 50 50 50 50
  can0  00008001  [19]  01 00 09 0E 1C 00 00 80 3F 00 00 00 00 11 00 1F 01 13 0D
  can0       100  [24]  21 00 09 2F 01 40 6B 2D 41 70 C9 09 41 BA AB 0F 3D 23 0D 48 1B 00 50 50
  can0  00008002  [35]  01 00 0A 0E 20 00 00 C0 7F 00 00 00 00 0E 23 00 00 00 00 00 00 80 3F 0D 27 00 00 C0 7F 11 00 1F 01 13 0D
  can0       200  [64]  21 00 0A 2F 01 80 B5 2C C1 00 95 F6 C0 0D 6A 96 3E 23 0D 48 1A 00 30 01 02 30 02 02 30 03 02 30 04 02 30 05 02 30 06 01 30 07 01 30 08 01 30 09 01 50 50 50 50 50 50 50 50 50 50 50 50 50 50 50
  can0  00008001  [19]  01 00 09 0E 1C 00 00 80 3F 00 00 00 00 11 00 1F 01 13 0D
  can0       100  [24]  21 00 09 2F 01 C0 75 2E 41 60 58 BF 40 20 00 F8 3C 23 0D 48 1C 00 50 50
  can0  00008002  [35]  01 00 0A 0E 20 00 00 C0 7F 00 00 00 00 0E 23 00 00 00 00 00 00 80 3F 0D 27 00 00 C0 7F 11 00 1F 01 13 0D
  can0       200  [64]  21 00 00 2F 01 80 D6 2D C1 60 A2 09 C1 00 00 00 00 23 0D 48 1A 00 30 30 02 30 31 02 30 32 02 30 33 02 30 34 02 30 35 01 30 36 01 30 37 01 30 38 01 30 39 01 50 50 50 50 50 50 50 50 50 50 50 50
  can0  00008001  [19]  01 00 09 0E 1C 00 00 80 3F 00 00 00 00 11 00 1F 01 13 0D
  can0       100  [24]  21 00 09 2F 01 00 F9 2F 41 C0 6E 0F 41 F0 4A 9A 3D 23 0D 48 1B 00 50 50
  can0  00008002  [35]  01 00 0A 0E 20 00 00 C0 7F 00 00 00 00 0E 23 00 00 00 00 00 00 80 3F 0D 27 00 00 C0 7F 11 00 1F 01 13 0D
  can0       200  [64]  21 00 0A 2F 01 C0 38 2F C1 C0 FF DF C0 96 3B 68 3E 23 0D 48 1B 00 30 01 02 30 02 02 30 03 02 30 04 02 30 05 02 30 06 01 30 07 01 30 08 01 30 09 01 50 50 50 50 50 50 50 50 50 50 50 50 50 50 50
  can0  00008001  [19]  01 00 09 0E 1C 00 00 80 3F 00 00 00 00 11 00 1F 01 13 0D
  can0       100  [24]  21 00 09 2F 01 00 F3 30 41 E0 CC B6 40 61 F0 8F 3C 23 0D 48 1B 00 50 50
  can0  00008002  [35]  01 00 0A 0E 20 00 00 C0 7F 00 00 00 00 0E 23 00 00 00 00 00 00 80 3F 0D 27 00 00 C0 7F 11 00 1F 01 13 0D
  can0       200  [64]  21 00 00 2F 01 C0 66 30 C1 C0 AA 05 C1 00 00 00 00 23 0D 48 1A 00 30 30 02 30 31 02 30 32 02 30 33 02 30 34 02 30 35 01 30 36 01 30 37 01 30 38 01 30 39 01 50 50 50 50 50 50 50 50 50 50 50 50
  can0  00008001  [19]  01 00 09 0E 1C 00 00 80 3F 00 00 00 00 11 00 1F 01 13 0D
  can0       100  [24]  21 00 09 2F 01 C0 66 32 41 90 17 0A 41 6E DB 9C 3D 23 0D 46 1B 00 50 50
  can0  00008002  [35]  01 00 0A 0E 20 00 00 C0 7F 00 00 00 00 0E 23 00 00 00 00 00 00 80 3F 0D 27 00 00 C0 7F 11 00 1F 01 13 0D
  can0       200  [64]  21 00 0A 2F 01 80 D4 31 C1 C0 87 F3 C0 95 4C 67 3E 23 0D 46 1A 00 30 01 02 30 02 02 30 03 02 30 04 02 30 05 02 30 06 01 30 07 01 30 08 01 30 09 01 50 50 50 50 50 50 50 50 50 50 50 50 50 50 50
  can0  00008001  [19]  01 00 09 0E 1C 00 00 80 3F 00 00 00 00 11 00 1F 01 13 0D
  can0       100  [24]  21 00 09 2F 01 C0 80 33 41 C0 EF B8 40 F7 23 3F 3D 23 0D 48 1B 00 50 50
  can0  00008002  [35]  01 00 0A 0E 20 00 00 C0 7F 00 00 00 00 0E 23 00 00 00 00 00 00 80 3F 0D 27 00 00 C0 7F 11 00 1F 01 13 0D
  can0       200  [64]  21 00 00 2F 01 00 F8 32 C1 80 F0 09 C1 00 00 00 00 23 0D 48 1A 00 30 30 02 30 31 02 30 32 02 30 33 02 30 34 02 30 35 01 30 36 01 30 37 01 30 38 01 30 39 01 50 50 50 50 50 50 50 50 50 50 50 50
  can0  00008001  [19]  01 00 09 0E 1C 00 00 80 3F 00 00 00 00 11 00 1F 01 13 0D
  can0       100  [24]  21 00 09 2F 01 40 F3 34 41 60 13 0C 41 FB A2 9F 3D 23 0D 46 1B 00 50 50
  can0  00008002  [35]  01 00 0A 0E 20 00 00 C0 7F 00 00 00 00 0E 23 00 00 00 00 00 00 80 3F 0D 27 00 00 C0 7F 11 00 1F 01 13 0D
  can0       200  [64]  21 00 0A 2F 01 40 5B 34 C1 A0 6E FF C0 F2 71 88 3E 23 0D 48 1A 00 30 01 02 30 02 02 30 03 02 30 04 02 30 05 02 30 06 01 30 07 01 30 08 01 30 09 01 50 50 50 50 50 50 50 50 50 50 50 50 50 50 50
  can0  00008001  [19]  01 00 09 0E 1C 00 00 80 3F 00 00 00 00 11 00 1F 01 13 0D
  can0       100  [24]  21 00 09 2F 01 80 13 36 41 40 EC C3 40 E6 73 4F 3D 23 0D 46 1B 00 50 50
  can0  00008002  [35]  01 00 0A 0E 20 00 00 C0 7F 00 00 00 00 0E 23 00 00 00 00 00 00 80 3F 0D 27 00 00 C0 7F 11 00 1F 01 13 0D
  can0       200  [64]  21 00 00 2F 01 80 E1 35 C1 00 CF 19 C1 00 00 00 00 23 0D 48 1A 00 30 30 02 30 31 02 30 32 02 30 33 02 30 34 02 30 35 01 30 36 01 30 37 01 30 38 01 30 39 01 50 50 50 50 50 50 50 50 50 50 50 50
  can0  00008001  [19]  01 00 09 0E 1C 00 00 80 3F 00 00 00 00 11 00 1F 01 13 0D
  can0       100  [24]  21 00 09 2F 01 C0 FD 37 41 A0 E4 18 41 82 05 CC 3C 23 0D 48 1B 00 50 50
  can0  00008002  [35]  01 00 0A 0E 20 00 00 C0 7F 00 00 00 00 0E 23 00 00 00 00 00 00 80 3F 0D 27 00 00 C0 7F 11 00 1F 01 13 0D
  can0       200  [64]  21 00 0A 2F 01 C0 4B 37 C1 60 2C F0 C0 DF 2E 5D 3E 23 0D 48 1A 00 30 01 02 30 02 02 30 03 02 30 04 02 30 05 02 30 06 01 30 07 01 30 08 01 30 09 01 50 50 50 50 50 50 50 50 50 50 50 50 50 50 50
  can0  00008001  [19]  01 00 09 0E 1C 00 00 80 3F 00 00 00 00 11 00 1F 01 13 0D
  can0       100  [24]  21 00 09 2F 01 C0 05 39 41 60 C9 C1 40 6C 3B 21 3D 23 0D 48 1C 00 50 50
  can0  00008002  [35]  01 00 0A 0E 20 00 00 C0 7F 00 00 00 00 0E 23 00 00 00 00 00 00 80 3F 0D 27 00 00 C0 7F 11 00 1F 01 13 0D
  can0       200  [64]  21 00 00 2F 01 40 85 38 C1 60 66 13 C1 00 00 00 00 23 0D 46 1A 00 30 30 02 30 31 02 30 32 02 30 33 02 30 34 02 30 35 01 30 36 01 30 37 01 30 38 01 30 39 01 50 50 50 50 50 50 50 50 50 50 50 50
  can0  00008001  [19]  01 00 09 0E 1C 00 00 80 3F 00 00 00 00 11 00 1F 01 13 0D
  can0       100  [24]  21 00 09 2F 01 C0 9B 3A 41 40 FA 17 41 ED E1 26 3D 23 0D 48 1B 00 50 50
  can0  00008002  [35]  01 00 0A 0E 20 00 00 C0 7F 00 00 00 00 0E 23 00 00 00 00 00 00 80 3F 0D 27 00 00 C0 7F 11 00 1F 01 13 0D
  can0       200  [64]  21 00 0A 2F 01 40 F3 39 C1 60 7F F7 C0 F5 B6 7E 3E 23 0D 48 1A 00 30 01 02 30 02 02 30 03 02 30 04 02 30 05 02 30 06 01 30 07 01 30 08 01 30 09 01 50 50 50 50 50 50 50 50 50 50 50 50 50 50 50
  can0  00008001  [19]  01 00 09 0E 1C 00 00 80 3F 00 00 00 00 11 00 1F 01 13 0D
  can0       100  [24]  21 00 09 2F 01 00 B3 3B 41 80 17 C2 40 B1 AE F2 3C 23 0D 48 1B 00 50 50
  can0  00008002  [35]  01 00 0A 0E 20 00 00 C0 7F 00 00 00 00 0E 23 00 00 00 00 00 00 80 3F 0D 27 00 00 C0 7F 11 00 1F 01 13 0D
  can0       200  [64]  21 00 00 2F 01 00 2E 3B C1 40 89 15 C1 00 00 00 00 23 0D 48 1A 00 30 30 02 30 31 02 30 32 02 30 33 02 30 34 02 30 35 01 30 36 01 30 37 01 30 38 01 30 39 01 50 50 50 50 50 50 50 50 50 50 50 50
  can0  00008001  [19]  01 00 09 0E 1C 00 00 80 3F 00 00 00 00 11 00 1F 01 13 0D
  can0       100  [24]  21 00 09 2F 01 80 55 3D 41 90 4C 16 41 2B 6D 6C 3D 23 0D 48 1B 00 50 50
  can0  00008002  [35]  01 00 0A 0E 20 00 00 C0 7F 00 00 00 00 0E 23 00 00 00 00 00 00 80 3F 0D 27 00 00 C0 7F 11 00 1F 01 13 0D
  can0       200  [64]  21 00 0A 2F 01 80 AD 3C C1 A0 FD FC C0 C3 90 88 3E 23 0D 48 1A 00 30 01 02 30 02 02 30 03 02 30 04 02 30 05 02 30 06 01 30 07 01 30 08 01 30 09 01 50 50 50 50 50 50 50 50 50 50 50 50 50 50 50
  can0  00008001  [19]  01 00 09 0E 1C 00 00 80 3F 00 00 00 00 11 00 1F 01 13 0D
  can0       100  [24]  21 00 09 2F 01 40 84 3E 41 20 26 D7 40 E3 FF B3 3C 23 0D 48 1B 00 50 50
  can0  00008002  [35]  01 00 0A 0E 20 00 00 C0 7F 00 00 00 00 0E 23 00 00 00 00 00 00 80 3F 0D 27 00 00 C0 7F 11 00 1F 01 13 0D
  can0       200  [64]  21 00 00 2F 01 40 08 3E C1 A0 55 1B C1 00 00 00 00 23 0D 46 1A 00 30 30 02 30 31 02 30 32 02 30 33 02 30 34 02 30 35 01 30 36 01 30 37 01 30 38 01 30 39 01 50 50 50 50 50 50 50 50 50 50 50 50
  can0  00008001  [19]  01 00 09 0E 1C 00 00 80 3F 00 00 00 00 11 00 1F 01 13 0D
  can0       100  [24]  21 00 09 2F 01 80 2A 40 41 E0 80 19 41 F6 88 A0 3D 23 0D 46 1B 00 50 50
  can0  00008002  [35]  01 00 0A 0E 20 00 00 C0 7F 00 00 00 00 0E 23 00 00 00 00 00 00 80 3F 0D 27 00 00 C0 7F 11 00 1F 01 13 0D
  can0       200  [64]  21 00 0A 2F 01 00 7D 3F C1 60 7F F7 C0 30 02 76 3E 23 0D 46 1A 00 30 01 02 30 02 02 30 03 02 30 04 02 30 05 02 30 06 01 30 07 01 30 08 01 30 09 01 50 50 50 50 50 50 50 50 50 50 50 50 50 50 50
  can0  00008001  [19]  01 00 09 0E 1C 00 00 80 3F 00 00 00 00 11 00 1F 01 13 0D
  can0       100  [24]  21 00 09 2F 01 40 3C 41 41 A0 B8 C9 40 E4 AE 59 3C 23 0D 46 1B 00 50 50
  can0  00008002  [35]  01 00 0A 0E 20 00 00 C0 7F 00 00 00 00 0E 23 00 00 00 00 00 00 80 3F 0D 27 00 00 C0 7F 11 00 1F 01 13 0D
  can0       200  [64]  21 00 00 2F 01 C0 B0 40 C1 10 14 15 C1 00 00 00 00 23 0D 46 1A 00 30 30 02 30 31 02 30 32 02 30 33 02 30 34 02 30 35 01 30 36 01 30 37 01 30 38 01 30 39 01 50 50 50 50 50 50 50 50 50 50 50 50
  can0  00008001  [19]  01 00 09 0E 1C 00 00 80 3F 00 00 00 00 11 00 1F 01 13 0D
  can0       100  [24]  21 00 09 2F 01 00 CE 42 41 90 BD 18 41 CD 22 96 3D 23 0D 48 1B 00 50 50
  can0  00008002  [35]  01 00 0A 0E 20 00 00 C0 7F 00 00 00 00 0E 23 00 00 00 00 00 00 80 3F 0D 27 00 00 C0 7F 11 00 1F 01 13 0D
  can0       200  [64]  21 00 0A 2F 01 80 33 42 C1 40 C5 0B C1 8E CA 94 3E 23 0D 46 1A 00 30 01 02 30 02 02 30 03 02 30 04 02 30 05 02 30 06 01 30 07 01 30 08 01 30 09 01 50 50 50 50 50 50 50 50 50 50 50 50 50 50 50
  can0  00008001  [19]  01 00 09 0E 1C 00 00 80 3F 00 00 00 00 11 00 1F 01 13 0D
  can0       100  [24]  21 00 09 2F 01 00 F0 43 41 20 80 C8 40 23 47 FA 3C 23 0D 46 1B 00 50 50
  can0  00008002  [35]  01 00 0A 0E 20 00 00 C0 7F 00 00 00 00 0E 23 00 00 00 00 00 00 80 3F 0D 27 00 00 C0 7F 11 00 1F 01 13 0D
  can0       200  [64]  21 00 00 2F 01 00 17 44 C1 90 88 0C C1 00 00 00 00 23 0D 48 1A 00 30 30 02 30 31 02 30 32 02 30 33 02 30 34 02 30 35 01 30 36 01 30 37 01 30 38 01 30 39 01 50 50 50 50 50 50 50 50 50 50 50 50
  can0  00008001  [19]  01 00 09 0E 1C 00 00 80 3F 00 00 00 00 11 00 1F 01 13 0D
  can0       100  [24]  21 00 09 2F 01 00 64 46 41 B0 5E 20 41 B8 5B 6A 3D 23 0D 48 1B 00 50 50
  can0  00008002  [35]  01 00 0A 0E 20 00 00 C0 7F 00 00 00 00 0E 23 00 00 00 00 00 00 80 3F 0D 27 00 00 C0 7F 11 00 1F 01 13 0D
  can0       200  [64]  21 00 0A 2F 01 C0 AA 45 C1 00 06 F9 C0 E7 65 86 3E 23 0D 46 1A 00 30 01 02 30 02 02 30 03 02 30 04 02 30 05 02 30 06 01 30 07 01 30 08 01 30 09 01 50 50 50 50 50 50 50 50 50 50 50 50 50 50 50
  can0  00008001  [19]  01 00 09 0E 1C 00 00 80 3F 00 00 00 00 11 00 1F 01 13 0D
  can0       100  [24]  21 00 09 2F 01 80 7C 47 41 00 A3 CA 40 5F 10 26 3D 23 0D 48 1B 00 50 50
  can0  00008002  [35]  01 00 0A 0E 20 00 00 C0 7F 00 00 00 00 0E 23 00 00 00 00 00 00 80 3F 0D 27 00 00 C0 7F 11 00 1F 01 13 0D
  can0       200  [64]  21 00 00 2F 01 80 F2 46 C1 A0 02 14 C1 00 00 00 00 23 0D 48 1A 00 30 30 02 30 31 02 30 32 02 30 33 02 30 34 02 30 35 01 30 36 01 30 37 01 30 38 01 30 39 01 50 50 50 50 50 50 50 50 50 50 50 50
  can0  00008001  [19]  01 00 09 0E 1C 00 00 80 3F 00 00 00 00 11 00 1F 01 13 0D
  can0       100  [24]  21 00 09 2F 01 80 0E 49 41 60 48 18 41 8D 9B 8F 3D 23 0D 48 1B 00 50 50
  can0  00008002  [35]  01 00 0A 0E 20 00 00 C0 7F 00 00 00 00 0E 23 00 00 00 00 00 00 80 3F 0D 27 00 00 C0 7F 11 00 1F 01 13 0D
